#  HZ   S   RI   R     50.00 
! Rohde & Schwarz ZVA24 4Ports - Version 3.12 - 1145.1110k26 SN: 100162
! Date: 2018-05-29 22:46:31
! Measurements: S11 S21 S12 S22 
! 
 1.000000000000000E8     2.606962919235230E-1   1.063774824142456  -3.428791198730469E2   2.872128173828125E3   9.254366159439087E-4   2.051106467843056E-2  -8.708143234252930E-2   2.938605308532715  
 1.010001449485433E8     2.913267374038696   1.075379371643066  -2.568241577148438E2  -7.150733886718750E3  -1.699119620025158E-2  -1.402092631906271E-2   3.849435329437256   4.843561172485352  
 1.020002898970865E8    -1.066042542457581   1.142272472381592  -4.171571960449219E2   2.636646240234375E3  -1.259039714932442E-2   1.510593947023153E-2  -1.982439398765564   3.339656591415405E-1  
 1.030004348456298E8    -2.057261228561401  -5.753083705902100   2.031108642578125E3  -2.967807861328125E3   2.166159451007843E-2   3.696212917566299E-2  -1.817404747009277  -8.834910392761231  
 1.040005797941731E8     1.541778594255447E-1   4.881984710693359  -2.228682373046875E3   3.587305175781250E3   7.746823597699404E-3   5.694032832980156E-2  -3.412769556045532   8.933635711669922  
 1.050007247427163E8    -2.586735248565674  -1.422408223152161E-1  -1.509705810546875E3   1.607142822265625E3  -4.382540658116341E-2   1.601171307265759E-2  -4.848206996917725   9.204792976379395E-2  
 1.060008696912596E8     1.738658785820007  -3.267376422882080   6.619274414062500E3   1.711319091796875E3   1.053397543728352E-2   9.761800989508629E-3   4.089156627655029  -3.527469396591187  
 1.070010146398029E8    -4.445950984954834E-1   6.485882401466370E-1   4.140277709960938E2  -2.121413330078125E3   6.421010475605726E-3  -1.078670658171177E-2  -1.094818234443665   2.999548316001892E-1  
 1.080011595883461E8     1.573490142822266   1.070398092269898E-1  -7.314494628906250E3  -1.069870605468750E3   1.585128018632531E-3  -2.752864384092391E-5  -5.228545665740967E-1  -1.064357042312622  
 1.090013045368894E8     1.260164380073547   3.065157532691956E-1  -2.006774169921875E3   1.754954467773438E3   9.727830067276955E-3  -2.112682908773422E-3   1.203592061996460   1.828654646873474  
 1.100014494854327E8    -1.116318798065186E1   6.293775081634522  -1.101029785156250E4   9.692761718750000E3  -4.231521114706993E-2   1.229880843311548E-2  -2.012732315063477E1   3.991209268569946  
 1.110015944339759E8     1.569657802581787  -2.328991889953613E-2  -2.770989990234375E3  -8.519968872070313E2   4.238968715071678E-3  -2.132488042116165E-2   3.077119350433350   4.374160766601563E-1  
 1.120017393825192E8    -2.602708041667938E-1  -1.143033027648926  -2.457375000000000E3  -8.989617919921875E2  -1.082118600606918E-2   1.042051473632455E-3  -4.097771942615509E-1  -1.097396969795227  
 1.130018843310625E8     4.436814308166504  -1.531784653663635   7.054708251953125E2   5.656759277343750E3   1.576266810297966E-2   7.967728190124035E-3   5.765918731689453  -1.800134778022766  
 1.140020292796058E8     2.871027469635010   2.309592485427856  -9.090764160156250E2   1.953726562500000E3   3.652553632855415E-2   3.418446704745293E-2   4.925915241241455   3.860007762908936  
 1.150021742281490E8    -9.411320686340332E-1   1.240526390075684E1  -9.769673828125000E3  -2.214631347656250E2   3.674364089965820E-2   2.514532953500748E-2  -1.330503940582275   1.461670398712158E1  
 1.160023191766923E8    -1.019218042492867E-1   2.661535739898682  -1.814100463867188E3   1.941093261718750E3  -3.790943417698145E-3   2.830080874264240E-2   2.329751998186112E-1   3.783492326736450  
 1.170024641252355E8    -4.709939479827881  -3.443768501281738   5.568845214843750E3   2.456322509765625E3   2.354861795902252E-2  -9.375955909490585E-3  -6.726720333099365  -1.811051368713379  
 1.180026090737788E8    -2.436293125152588  -1.373129248619080   1.710292602539063E3   2.372362792968750E3   1.335360668599606E-2  -2.044641971588135E-2  -4.207832336425781  -2.734019279479981  
 1.190027540223221E8     1.438974618911743   1.264314055442810  -5.438250732421875E2   3.184136230468750E3  -7.149750599637628E-4   1.762008666992188E-2   2.586203575134277   2.829217195510864  
 1.200028989708653E8     2.607055187225342  -3.253781318664551   1.873023193359375E3   2.322666015625000E3   1.505363732576370E-2   1.817253045737743E-2   3.461509466171265  -4.375736236572266  
 1.210030439194086E8    -1.946312338113785E-1   2.184106260538101E-1   1.148786132812500E3   9.366709960937500E3  -4.281993489712477E-3   2.761601936072111E-4  -1.761508703231812   2.375508308410645  
 1.220031888679519E8     1.566496491432190  -8.848454356193543E-1   3.473995971679688E2   2.672685302734375E3   9.639405645430088E-3   9.807661175727844E-3   2.592057228088379  -1.038585424423218  
 1.230033338164952E8     3.214014053344727  -3.532109260559082  -3.054338623046875E3   9.177997436523438E2   1.695738732814789E-2  -1.941881701350212E-2   3.023225784301758  -4.691937446594238  
 1.240034787650384E8    -4.231137633323669E-1  -2.803870439529419   3.417134277343750E3  -1.867567382812500E3   4.126046318560839E-3   1.609799452126026E-2  -1.746304035186768  -1.924603462219238  
 1.250036237135817E8     9.023422002792358E-1  -8.173227906227112E-1  -6.001496582031250E2   2.120581054687500E3   9.340846911072731E-3  -7.366746431216598E-4  -2.207300364971161E-1  -1.757344722747803  
 1.260037686621250E8    -2.595968246459961E-1  -6.685544967651367  -2.482653076171875E3   5.493881835937500E3   2.399965189397335E-2  -1.212117075920105E-2  -3.584419727325440  -8.318123817443848  
 1.270039136106682E8     1.535385608673096  -3.958318531513214E-1  -9.805735473632813E2   4.768326171875000E3   4.515264648944140E-3   1.165512134321034E-3   5.676774978637695E-1  -1.981517314910889  
 1.280040585592115E8    -9.982252120971680E-2   6.657961368560791   1.191085571289063E3   4.082972900390625E3  -3.071727417409420E-2   9.129535406827927E-3   1.430115818977356   6.436271190643311  
 1.290042035077547E8     4.581703662872315   4.411412775516510E-1   2.364646972656250E3  -9.314870605468750E2  -2.268242090940476E-2  -7.412027567625046E-3   6.351697921752930  -2.509242534637451  
 1.300043484562980E8     5.182045459747315   4.631007015705109E-1   2.414636230468750E3   4.559406738281250E3  -4.433117341250181E-3   1.111185457557440E-2   5.082028865814209  -1.401613116264343  
 1.310044934048413E8    -5.784309387207031   8.987226486206055   2.432188964843750E3   9.701445312500000E3  -2.732287347316742E-2  -3.786585293710232E-3  -3.686800956726074   1.402317047119141E1  
 1.320046383533846E8     5.452789068222046E-1  -5.448393344879150   4.914070800781250E3  -6.275393066406250E2  -1.037989091128111E-2   2.245201729238033E-2  -3.591105222702026  -5.920900344848633  
 1.330047833019278E8     6.884215354919434   6.228375434875488  -1.003697753906250E3  -6.363688964843750E3   3.702309215441346E-3  -1.289452612400055E-2   1.075001049041748E1   3.003507375717163  
 1.340049282504711E8    -3.839369535446167  -1.584684848785400   1.030712402343750E3   2.027450927734375E3   2.996767312288284E-2  -3.041729703545570E-2  -4.415321350097656   1.406882286071777  
 1.350050731990144E8     1.972545504570007   2.576751232147217   1.246375000000000E3   2.770551757812500E3  -1.634362339973450E-2   1.571012195199728E-3   1.517585873603821   1.060937166213989  
 1.360052181475576E8    -2.621439695358276  -2.576370239257813   3.665494140625000E3   3.075869873046875E3   1.577890664339066E-2   2.036025281995535E-3  -4.351002693176270  -2.295522093772888E-1  
 1.370053630961009E8     6.059350967407227E-1  -2.473362922668457   2.494561767578125E3   8.575953979492188E2  -3.577953670173883E-3   1.796032302081585E-2  -9.209148883819580E-1  -2.431007862091065  
 1.380055080446442E8     8.717597723007202E-1  -4.763997554779053  -4.688322143554688E2   4.521218261718750E3   2.199121937155724E-2   1.270621921867132E-2  -2.670609235763550  -5.048695564270020  
 1.390056529931874E8    -4.912416458129883  -1.345973730087280   2.304998046875000E3  -2.641830322265625E3   1.088309288024902E-2   3.467101603746414E-2  -7.478695869445801   2.004373311996460  
 1.400057979417307E8    -5.791863203048706E-1   5.706274986267090   4.258403320312500E3   8.616840820312500E2  -2.073653507977724E-3  -1.885746419429779E-2   2.352439641952515   6.433999538421631  
 1.410059428902740E8    -1.693128585815430  -2.980110883712769   1.249717773437500E3   3.441737304687500E3   2.110821753740311E-2   4.289416130632162E-3  -4.228382110595703  -1.427492618560791  
 1.420060878388172E8    -4.947606921195984E-1   1.955733776092529   2.341586669921875E3   2.207364257812500E3  -3.573998576030135E-3  -9.187305346131325E-3  -9.391856193542481E-2   2.754145622253418  
 1.430062327873605E8     1.130082905292511E-1  -2.610513687133789   2.836792480468750E3  -3.312330078125000E3  -1.330275554209948E-2  -1.403131522238255E-3  -1.395914912223816  -2.707080841064453  
 1.440063777359037E8    -8.894150853157044E-1   1.242966175079346   2.346486816406250E3  -5.059017028808594E2   1.148912683129311E-2  -1.639578840695322E-3  -2.157569527626038E-1   2.330076456069946  
 1.450065226844470E8     2.581250667572022   1.498615860939026   2.325056152343750E3  -1.542602386474609E2  -3.631927073001862E-3  -1.758667826652527E-2   2.240712642669678   3.953749537467957E-1  
 1.460066676329903E8    -4.882306605577469E-2  -2.350608259439468E-1   1.893157714843750E3   3.445198974609375E3   4.335459787398577E-3   4.220419563353062E-3  -1.872858762741089  -2.962135672569275E-1  
 1.470068125815336E8    -5.354555606842041  -5.011399984359741E-1   3.346618408203125E3   1.095582519531250E3   2.732805535197258E-2   1.107671298086643E-2  -5.676121234893799   1.691482901573181  
 1.480069575300768E8     5.414382934570313   8.243461847305298E-1   5.994974609375000E3  -1.863712890625000E3  -3.888732753694058E-4  -1.334029715508223E-2   4.643262386322022  -1.987613677978516  
 1.490071024786201E8     3.336051940917969  -2.103718280792236   1.932557373046875E3  -1.931697021484375E3  -6.685317028313875E-3  -2.588601782917976E-2   1.513075828552246  -2.756917715072632  
 1.500072474271634E8     4.872914314270020   5.500946998596191   4.985009277343750E3   5.379217529296875E2   9.120894595980644E-3  -1.357482466846705E-2   6.468580245971680   2.652142524719238  
 1.510073923757066E8     1.711014509201050E-1   5.588901042938232   2.395489746093750E3  -6.053322143554688E2   2.253811620175839E-2  -6.324393674731255E-3   3.399615526199341   5.181927680969238  
 1.520075373242499E8     3.713938713073731   7.148825645446777   1.202777441406250E4  -3.117288574218750E3   6.653520278632641E-3  -1.520174788311124E-3   6.632102012634277   4.582176208496094  
 1.530076822727932E8     5.066036224365234   3.406373500823975  -1.550432861328125E3   6.351705566406250E3  -1.295991800725460E-2  -3.481409745290875E-3   5.187553882598877  -1.255452632904053E-2  
 1.540078272213364E8    -1.077862739562988   3.691798448562622   4.304388671875000E3  -7.750285644531250E2   9.319160133600235E-3   3.997469611931592E-4  -3.183422982692719E-2   3.544235706329346  
 1.550079721698797E8     7.788050174713135E-1   6.119906425476074   3.649247558593750E3  -6.562579101562500E3   4.152596928179264E-3   6.630897056311369E-3   2.484964847564697   5.199244976043701  
 1.560081171184230E8    -2.216224193572998   5.104514598846436   1.938748535156250E3  -1.119530639648438E3   1.826884597539902E-2   1.607597619295120E-2   1.650272011756897   4.865584850311279  
 1.570082620669662E8    -3.795570731163025E-1   3.628553390502930   1.546687011718750E3  -7.807309570312500E2   2.311128564178944E-2   1.144968904554844E-2   1.886466741561890   2.955300807952881  
 1.580084070155095E8    -3.641376733779907   1.712638020515442   2.234801757812500E3  -1.369678100585938E3   5.431538447737694E-3   1.785595528781414E-2  -1.735546469688416   4.088571548461914  
 1.590085519640528E8     9.784049987792969E-1   1.504289627075195   3.215674804687500E3  -1.690157470703125E2   7.111746352165937E-3  -2.776660025119782E-3   8.021468520164490E-1   9.319859147071838E-1  
 1.600086969125960E8     1.272810250520706E-1   1.107080221176148   2.742345703125000E3  -1.618633911132813E3   2.351242816075683E-3   3.490281989797950E-3   4.035966098308563E-1   1.453748703002930  
 1.610088418611393E8     4.871791899204254E-1   3.072796761989594E-1  -5.547895996093750E3   6.275406494140625E2   6.561964401043952E-4   2.512987470254302E-3   2.399844527244568E-1  -1.172864198684692  
 1.620089868096826E8    -5.021625995635986   2.016667604446411   1.988298828125000E3  -1.767225036621094E2   7.706672418862581E-3   2.618305571377277E-2  -1.469416379928589   4.694393634796143  
 1.630091317582258E8    -1.366733551025391  -5.431518554687500E1   3.198045312500000E4  -2.995666015625000E3  -7.580044865608215E-2   3.348734229803085E-2  -2.436845397949219E1  -2.994672203063965E1  
 1.640092767067691E8     4.062051475048065E-1  -1.686501026153565   3.924017822265625E3  -3.895585937500000E3  -1.775939599610865E-3  -2.862444147467613E-3  -7.070342302322388E-1   6.213390231132507E-1  
 1.650094216553124E8    -4.246386528015137  -1.744670748710632   1.094510620117188E3  -3.693679687500000E3  -1.385287754237652E-2  -3.277543699368835E-3  -3.753669500350952   2.903306484222412E-1  
 1.660095666038556E8    -2.554161548614502   1.561200022697449   3.186717041015625E3  -2.948300537109375E3  -3.116193693131208E-3   8.017442189157009E-3  -9.899343848228455E-1   2.114880323410034  
 1.670097115523989E8    -4.180803596973419E-1  -1.272113800048828   3.062340820312500E3  -1.981632446289063E3  -4.336376674473286E-3  -3.903399687260389E-3  -6.266884803771973E-1  -1.164732813835144  
 1.680098565009422E8     8.448143005371094  -8.727654218673706E-1   3.815305664062500E3  -4.574891601562500E3   3.129757568240166E-2  -5.341741722077131E-3   5.120544910430908  -4.043103694915772  
 1.690100014494854E8     2.642675638198853   1.882567703723908E-1   9.980257568359375E2  -2.684149658203125E3   1.426522247493267E-2   5.962727125734091E-3   2.490778446197510  -5.187588930130005E-1  
 1.700101463980287E8     2.003165483474731  -1.033612251281738   4.294826660156250E3  -1.278303710937500E3   3.824492916464806E-3  -8.424433879554272E-3   8.281980752944946E-1  -1.725861907005310  
 1.710102913465720E8    -1.097745037078857E1  -8.925986289978027E-1  -8.582896728515625E2  -4.869584960937500E3  -1.379600912332535E-2  -7.513898424804211E-3  -6.849049568176270   4.327071189880371  
 1.720104362951152E8     2.351230144500732   2.540111064910889   3.111054931640625E3   6.392376098632813E2   1.799702830612660E-2  -1.267242012545466E-3   2.056180238723755   2.857274711132050E-1  
 1.730105812436585E8    -3.805344581604004   6.901234984397888E-1   2.181513916015625E3  -2.368050537109375E3  -1.541758701205254E-2   1.565275248140097E-3  -9.861023426055908E-1   2.429254770278931  
 1.740107261922018E8     3.356569528579712   4.093228340148926   1.679712524414063E3  -5.395466308593750E3   3.571882843971252E-4   1.419729925692082E-2   2.473790884017944   2.022860050201416E-1  
 1.750108711407450E8    -3.194805383682251E-1  -4.363950729370117   8.372104492187500E3  -3.938235839843750E3  -3.637475892901421E-3  -7.250876165926457E-3  -2.226091861724854  -3.275253057479858  
 1.760110160892883E8    -5.010392189025879   5.508150577545166   1.889985156250000E4   9.273085937500000E3  -1.280762837268412E-3   2.569636330008507E-3  -1.588118433952332   2.001904487609863  
 1.770111610378315E8    -1.142195034027100E1   3.294107675552368   7.935401855468750E3  -5.571775878906250E3  -9.043287485837936E-3  -3.133654594421387E-3  -6.863269329071045   5.482385158538818  
 1.780113059863749E8     7.547322511672974E-1  -3.737616539001465   5.580753173828125E2  -3.923229492187500E3   1.148530282080174E-2  -5.466476548463106E-3  -1.584053635597229  -1.917518973350525  
 1.790114509349181E8     6.379067897796631E-2  -6.992282867431641  -1.182432006835938E3  -6.485269531250000E3   1.366943772882223E-2  -5.530902184545994E-3  -2.067318439483643  -2.762176990509033  
 1.800115958834614E8    -3.859194219112396E-1   3.038902044296265   3.932405273437500E3   2.533818847656250E3   3.856869414448738E-3   6.968869827687740E-3   1.454303264617920E-1   1.720650911331177  
 1.810117408320046E8     4.730430603027344  -4.778612136840820  -1.650000976562500E3  -3.053286865234375E3   2.060740068554878E-2   2.457835711538792E-2   1.188773751258850  -4.109457015991211  
 1.820118857805479E8     7.712881565093994E-1  -1.882945418357849   1.153657958984375E3  -2.481190429687500E3   1.012153271585703E-2  -2.547058975324035E-3  -2.395507395267487E-1  -1.843099117279053  
 1.830120307290912E8    -3.359534978866577  -1.231778383255005  -6.580098876953125E2  -3.381485595703125E3   6.212089210748673E-3  -1.116927154362202E-2  -3.049110889434815  -5.191181302070618E-1  
 1.840121756776344E8     1.748361468315125   4.648140907287598  -8.909031250000000E3  -6.274559570312500E3  -6.849569268524647E-3  -5.722839385271072E-3   2.450592517852783   1.998262166976929  
 1.850123206261777E8     4.908082008361816   1.979732751846314   2.934232177734375E3  -4.810187500000000E3  -6.967176450416446E-4   1.687018014490604E-2   2.164040803909302   1.057828903198242  
 1.860124655747210E8    -4.767222404479981   1.246609091758728  -2.240397949218750E3  -3.525625976562500E3   9.154233150184155E-3  -1.124407351016998E-2  -2.790399074554443   1.514145851135254  
 1.870126105232642E8    -2.535678863525391  -1.846306228637695E1  -8.622427734375000E3  -4.382737304687500E3   1.811384223401547E-2   1.228099502623081E-2  -3.277633666992188  -9.149014472961426  
 1.880127554718075E8    -1.432926654815674  -5.909600257873535E-1   6.413699951171875E2  -2.401334472656250E3   5.798040423542261E-3  -8.030402474105358E-3  -9.889920949935913E-1   2.518281340599060E-1  
 1.890129004203508E8    -5.252926945686340E-1  -7.314847111701965E-1   3.932348876953125E3  -3.863517089843750E3   2.342625986784697E-3  -1.171354088000953E-3  -2.054253667593002E-1  -1.328222155570984  
 1.900130453688940E8     1.023453354835510  -2.484460353851318  -6.292258789062500E3  -5.262719726562500E3  -6.472987588495016E-4   3.053917316719890E-3   1.562763899564743E-1  -2.008496761322022  
 1.910131903174373E8     1.473658800125122  -3.706771850585938   1.187704833984375E3  -5.604815429687500E3   8.215528912842274E-3   5.729525350034237E-3   1.762399673461914  -2.362345695495606  
 1.920133352659806E8    -1.407926082611084  -2.124374389648438  -1.012687133789063E3  -2.954691894531250E3   1.050400733947754E-2   6.851568818092346E-3  -2.321332246065140E-1  -5.602386593818665E-1  
 1.930134802145239E8    -7.734253406524658E-1  -1.343264341354370  -2.620061340332031E2  -2.562571289062500E3   9.529379196465015E-3   3.257608041167259E-3   4.824741929769516E-2  -1.194922804832459  
 1.940136251630671E8    -2.331580162048340  -3.268317937850952  -2.264757324218750E3  -2.569382812500000E3   8.600008673965931E-3   1.436289586126804E-2  -7.183251976966858E-1  -1.017487764358521  
 1.950137701116104E8    -9.022331237792969E-1  -3.935790777206421  -3.288139648437500E3  -3.447406494140625E3   6.080731982365251E-4   1.135721430182457E-2  -9.824823737144470E-1  -1.410388231277466  
 1.960139150601536E8     2.378239631652832  -1.302588224411011  -3.016701416015625E3  -2.885308837890625E2  -1.221083477139473E-2  -5.991311743855476E-3  -1.441743671894074E-1   7.017218470573425E-1  
 1.970140600086969E8    -2.557919979095459   8.920207023620606E-1  -2.352925537109375E3  -1.141877807617188E3   1.618144661188126E-2   5.673569627106190E-3  -1.285722494125366   4.513416439294815E-2  
 1.980142049572402E8    -6.680499076843262  -3.635586261749268   1.260665771484375E3  -3.867674804687500E3   2.253226935863495E-2  -4.146033897995949E-4  -4.366721153259277  -2.719779253005981  
