#  HZ   S   DB   R     50.00 
! Rohde & Schwarz ZVA24 4Ports - Version 3.12 - 1145.1110k26 SN: 100162
! Date: 2018-05-28 23:10:48
! Measurements: S11 S21 S12 S22 
! 
 1.000000000000000E8    -4.466661978426060E1   5.729904715948737E1  -3.387406823806730E-1   1.296936063333301E2  -3.563162074056303E-1   1.292300600284456E2  -4.342898967679756E1  -2.467891845881668E1  
 1.345000000000000E8    -4.251187788760116E1   4.147229968751146E1  -3.930225278668160E-1  -7.379054633965791E1  -4.247137403306384E-1  -7.386018089668117E1  -3.834909536032563E1  -5.161665188063833E1  
 1.690000000000000E8    -4.027340512115912E1  -8.432567797092449E1  -4.673589631644105E-1   8.283539941903749E1  -4.849357279102331E-1   8.302322616584877E1  -5.507655613480127E1  -4.159362852160669E1  
 2.035000000000000E8    -4.635818828501802E1  -1.250689067702674E2  -5.101572855391444E-1  -1.201552383555910E2  -5.447442938241253E-1  -1.201834558264692E2  -5.352252091375123E1  -1.194080574983233E2  
 2.380000000000000E8    -4.457158215496217E1  -1.643431319343414E2  -5.400255416599090E-1   3.664449484769170E1  -5.632600239920080E-1   3.655288089224019E1  -5.296456230826143E1   7.936453415981102E1  
 2.725000000000000E8    -5.015652778372160E1  -1.396583477950731E2  -5.794408739319058E-1  -1.666267753393563E2  -6.000901087870487E-1  -1.665929787580604E2  -4.897770647960105E1  -1.359814649645444E1  
 3.070000000000000E8    -3.982875851112632E1   1.264913019878520E1  -6.450594533335238E-1  -9.792490661713508  -6.391770475653222E-1  -9.786691061233567  -4.298341080083059E1   1.295311039726450E2  
 3.415000000000000E8    -4.091742369660408E1   1.519224192457319E1  -6.710529888679231E-1   1.469658970085956E2  -6.748018794031234E-1   1.469678202703472E2  -4.265046266394440E1   3.766904263079426E1  
 3.760000000000000E8    -4.057752920959551E1  -8.473743781983696E1  -6.941628998398723E-1  -5.612644576604951E1  -7.208280605693518E-1  -5.601616349427998E1  -4.879545141351241E1  -1.164550733930109E2  
 4.105000000000000E8    -4.957520516217008E1  -8.422553603890445E1  -7.346997404330234E-1   1.007814547793228E2  -7.247675267158960E-1   1.007815991652137E2  -4.108094915346050E1  -7.304828524112935E1  
 4.450000000000000E8    -3.870383397107524E1  -8.522821048075642E1  -7.501497605995082E-1  -1.023894398884972E2  -7.643995457224517E-1  -1.023531712179117E2  -4.500089703043933E1  -1.874542858243382E1  
 4.795000000000000E8    -4.103188867619377E1   1.464376016303010E2  -7.786772525476186E-1   5.439288258856665E1  -7.997163812291090E-1   5.455423507402546E1  -3.945931797086573E1  -1.729129690614297E2  
 5.140000000000000E8    -6.200171180269229E1  -8.049468478729654E1  -8.216775329357650E-1  -1.485613350872683E2  -8.233529408313685E-1  -1.485209284800347E2  -4.886415429827981E1  -1.149366625661102E2  
 5.485000000000000E8    -3.949291672412277E1  -3.423990652587094E1  -8.421894172078854E-1   8.305943498099024  -8.474189436614232E-1   8.371580078463843  -3.908722741007535E1  -1.264969027127888E2  
 5.830000000000000E8    -4.587257493555375E1  -4.430218253662433E1  -8.651965730185320E-1   1.652346353814959E2  -8.881390911047546E-1   1.653224515116322E2  -5.209073694758340E1  -8.910168410692741E1  
 6.175000000000000E8    -3.858925590588799E1  -1.413644297856626E2  -8.946564712823103E-1  -3.788145537956724E1  -9.043547738304801E-1  -3.787654289563839E1  -3.653793251029815E1  -8.454500181858995E1  
 6.520000000000000E8    -4.736448747469503E1  -7.627407824024562E1  -9.178410109346052E-1   1.191241278166076E2  -9.277186345960669E-1   1.190943428625096E2  -4.538261615989102E1  -6.621894591541606E1  
 6.865000000000000E8    -4.736368868360998E1   6.735707460245762E1  -9.455031349780929E-1  -8.398797557572414E1  -9.597447824858783E-1  -8.393191631123032E1  -3.575870626999593E1  -7.342136356048150E1  
 7.210000000000000E8    -5.022215575732364E1   6.344596549572354E1  -9.602308090692547E-1   7.293405537035034E1  -9.749357181476991E-1   7.295522749804299E1  -3.735365638716700E1  -1.044397194012071E2  
 7.555000000000000E8    -4.042142019588869E1  -1.035391034648030E2  -9.831059965375267E-1  -1.301636017767310E2  -1.003098950175071  -1.300923791910553E2  -4.711682174349900E1  -6.779800321069206E1  
 7.900000000000000E8    -4.057036151246302E1  -1.511030052320307E2  -1.003523663135806   2.679715296491872E1  -1.023927983918645   2.681242875757646E1  -5.129097431190024E1   1.795060999469940E1  
 8.245000000000000E8    -4.176520525170187E1   3.641401759078440E1  -1.037717393674206  -1.762942861903489E2  -1.048004445144615  -1.762314523781714E2  -4.095463439068281E1   1.594542174386828E2  
 8.590000000000000E8    -4.275730966210867E1  -8.556274207072930E1  -1.055536014986863  -1.928816859013246E1  -1.060126488331247  -1.929309258344854E1  -4.380700454142966E1  -1.131465760297916E2  
 8.935000000000000E8    -4.555189308532722E1  -4.408667799011512E1  -1.079023454894066   1.376255623678979E2  -1.079074809061284   1.376514140715144E2  -5.655973294302653E1  -4.268654489234915E1  
 9.280000000000000E8    -5.384929528333925E1   2.556085628537040E1  -1.099074330759904  -6.542991383775274E1  -1.108057492918434  -6.541246663372327E1  -3.935942173023621E1  -5.730052345602987E1  
 9.625000000000000E8    -3.500401141837948E1  -1.508344630256119E2  -1.114251578461797   9.156090918498855E1  -1.128642237813651   9.153928677650293E1  -3.585439722075886E1  -1.665470372022681E2  
 9.970000000000000E8    -4.142283718363313E1  -1.532413127819191E2  -1.136189930878085  -1.115471395213329E2  -1.153433455926500  -1.115090412906372E2  -4.277160279711946E1  -1.609376235682809E2  
 1.031500000000000E9    -3.393121709467764E1   1.718864118401666E2  -1.167541416011695   4.540902536379953E1  -1.171757560802511   4.540409181735946E1  -3.560407426593682E1   1.225103660375951E2  
 1.066000000000000E9    -3.988797354627592E1   1.318727938414236E2  -1.172310906809657  -1.576004258030532E2  -1.191717013714844  -1.575900388634105E2  -4.077913877571699E1   1.086895933324848E2  
 1.100500000000000E9    -5.011727299723609E1  -8.997726967838688E1  -1.197821746579242  -6.519645272082471E-1  -1.211037937359174  -6.686795300165515E-1  -4.726109084840370E1  -7.054301310322492E1  
 1.135000000000000E9    -4.120594561824937E1  -9.420213070125774E1  -1.212391891392079   1.562897263765572E2  -1.227188419058628   1.562908445202572E2  -4.159098657018297E1  -9.910660799391499E1  
 1.169500000000000E9    -4.158126880134010E1  -1.333726326223853E2  -1.239556994603020  -4.672298972542203E1  -1.248134941280201  -4.671683807637858E1  -3.838196055132050E1  -9.082705137697580E1  
 1.204000000000000E9    -3.937045736619860E1  -1.573391294691572E2  -1.252408356586926   1.102467209441531E2  -1.259482570479603   1.102470178670874E2  -3.640251427789723E1  -1.146151109571337E2  
 1.238500000000000E9    -3.472350870993817E1   1.698108988075789E2  -1.278207349615504  -9.284962971451095E1  -1.288924721677114  -9.280123344641005E1  -3.273892237067555E1  -1.443066196056666E2  
 1.273000000000000E9    -4.832293894139067E1  -1.213402149220467E2  -1.289314683855273   6.418154924134774E1  -1.292661506421022   6.416918131643716E1  -4.361121633699063E1  -1.216906045639983E2  
 1.307500000000000E9    -4.577103566855153E1   1.517584151145593E1  -1.318316782105761  -1.388682391061206E2  -1.315858330146604  -1.388196846722196E2  -3.762052535702526E1  -1.302379977721587E2  
 1.342000000000000E9    -4.775841701551050E1   1.758023330666880E2  -1.328238986227605   1.805247772206420E1  -1.335075280048563   1.812077244959070E1  -4.860156381969423E1   1.669285049808691E2  
 1.376500000000000E9    -4.191371777183786E1  -1.290999107499811E2  -1.349513867454940   1.750615780091600E2  -1.359157941576823   1.750619214425605E2  -4.283839609671324E1  -8.322375173515485E1  
 1.411000000000000E9    -4.274788705604237E1  -5.766612654163625E1  -1.356286756869462  -2.796862618612299E1  -1.367999525332396  -2.792652080408643E1  -4.272354105988557E1  -1.640002280759480E2  
 1.445500000000000E9    -3.789816643803291E1  -7.878094323641307E1  -1.382650804892020   1.290282947789055E2  -1.390987499736539   1.290279625381685E2  -4.075858460551510E1   1.692323606224911E2  
 1.480000000000000E9    -4.715235964715254E1  -7.585723966628103E1  -1.394378492463866  -7.401994169048848E1  -1.401861483340979  -7.398731045671990E1  -4.761840034091860E1  -7.481833908482975E1  
 1.514500000000000E9    -4.377754929039823E1  -8.916746123447526E1  -1.411035971662741   8.296336608399993E1  -1.417053654899516   8.297886566712296E1  -4.472906600197055E1  -8.733228840097613E1  
 1.549000000000000E9    -4.178289969357680E1   1.353037180075640E2  -1.431404754158296  -1.200723575377957E2  -1.433980846718153  -1.200219869925049E2  -3.661915445689070E1  -1.509553386338569E2  
 1.583500000000000E9    -4.095157852746607E1   1.355334329802677E2  -1.445822743965855   3.692525330065569E1  -1.452561356421656   3.696943482948881E1  -3.767403384372501E1   1.654644870361178E2  
 1.618000000000000E9    -4.689180109258256E1   1.417804312685545E2  -1.461119904210990  -1.661029957365959E2  -1.471531994368948  -1.660814714380027E2  -4.348445488034541E1   1.334162975650130E2  
 1.652500000000000E9    -3.775891417216494E1   1.506341284429479E2  -1.480078790200186  -9.134909616484917  -1.490073842837942  -9.103407803414486  -3.806976946155366E1   1.736678738867155E1  
 1.687000000000000E9    -4.544510265800225E1   1.293738645303011E2  -1.496178532439593   1.478572069493525E2  -1.500280515899940   1.478888352524931E2  -4.056776902324896E1  -2.814268324782996E1  
 1.721500000000000E9    -3.716305353330355E1  -1.451307076706127E2  -1.507883554026193  -5.516255889437966E1  -1.516420877761493  -5.511886150927592E1  -3.555306964178921E1  -1.164741430639729E2  
 1.756000000000000E9    -4.010038855781158E1   1.632306391793955E2  -1.526071876855933   1.017955627164040E2  -1.530920372112093   1.018396957439254E2  -3.532165613833032E1  -1.135364254121525E2  
 1.790500000000000E9    -3.902165954301548E1   1.159955747391139E2  -1.544940383151091  -1.012179241501719E2  -1.556106291615693  -1.011183766305125E2  -3.368438834708654E1  -1.301845287143909E2  
 1.825000000000000E9    -4.648691794134120E1  -9.215379712103696E1  -1.555660285560722   5.579190101528142E1  -1.560848028238357   5.584437666748427E1  -4.254506430761545E1  -1.219856879526274E2  
 1.859500000000000E9    -4.794381190755218E1   6.450622073519843E1  -1.568623404562079  -1.472307543004653E2  -1.577082611205169  -1.471779862466372E2  -3.744767140126870E1  -1.664544531449739E2  
 1.894000000000000E9    -4.000254706535698E1  -1.140869059742724E2  -1.581794017419808   9.789459007367618  -1.593084994228068   9.830591981234601  -4.354104392999554E1  -8.572579983306490E1  
 1.928500000000000E9    -4.434739030084941E1  -1.283798179442780E2  -1.598776640520276   1.667309780346323E2  -1.605058613949225   1.667741111245462E2  -4.439180334562246E1  -1.259184750987390E2  
 1.963000000000000E9    -3.499180274387651E1  -4.464685359158856E1  -1.612856179787381  -3.626353889595768E1  -1.628725593317216  -3.617979104526268E1  -3.550980292083777E1   1.512144238608706E2  
 1.997500000000000E9    -3.793547270667977E1  -1.299000293485110E2  -1.628419067334648   1.207168979393293E2  -1.635852195473353   1.207990892465160E2  -4.053822359452250E1  -1.448915927194014E2  
 2.032000000000000E9    -4.519526200758739E1   1.633084357056306E2  -1.641784578083812  -8.226503262015524E1  -1.657982365503272  -8.223572222770324E1  -3.904157647128642E1  -1.039305916622570E2  
 2.066500000000000E9    -3.901649788632863E1  -1.751637671294019E2  -1.663703337909754   7.473708609479546E1  -1.665251933944141   7.475582038141798E1  -3.734125461866245E1  -1.605806736136310E2  
 2.101000000000000E9    -4.455724246827253E1  -1.405579861385286E2  -1.677484196962120  -1.282583101045066E2  -1.689952001983029  -1.282716156163703E2  -4.475057017359200E1  -1.552514725087713E2  
 2.135500000000000E9    -6.319106062579896E1  -2.708208411820261E1  -1.688677507780381   2.873793420359892E1  -1.685890652089841   2.877493356971876E1  -3.943852844182732E1  -1.594077840918853E2  
 2.170000000000000E9    -3.910170554205642E1   1.795093676443624E2  -1.699614006755197  -1.742965122381614E2  -1.710040068549221  -1.742357284579702E2  -4.727076640509163E1   7.407667021344155E1  
 2.204500000000000E9    -3.910092292077573E1   1.582240649874585E2  -1.712025615115389  -1.729363398302949E1  -1.725115071059813  -1.723809349887241E1  -4.330558606446969E1   2.223356070119878  
 2.239000000000000E9    -3.894363122825516E1   9.936819719758920E1  -1.728633886050547   1.397151911664964E2  -1.739852568848442   1.397776355965699E2  -3.822341702683931E1  -6.673907124341048  
 2.273500000000000E9    -3.956772230683819E1   1.273074577635385E2  -1.742486259752028  -6.329157256945453E1  -1.748517588008826  -6.322404861795203E1  -3.488701455219503E1  -7.654776954208985E1  
 2.308000000000000E9    -3.483821312425241E1  -1.596737004008047E2  -1.758777887071345   9.369647056711804E1  -1.768086045933131   9.375757586107690E1  -3.334589361558844E1  -1.614069071906479E2  
 2.342500000000000E9    -3.464067088574554E1   1.590605846781340E2  -1.772521947620686  -1.093397876397911E2  -1.779095162707439  -1.092197398575016E2  -3.240091991822656E1  -1.757941679525315E2  
 2.377000000000000E9    -4.520260332116945E1  -6.316979479359789E1  -1.780301625763632   4.772093133765549E1  -1.791727646695054   4.781557563748833E1  -4.375351498927344E1  -1.128465200457313E2  
 2.411500000000000E9    -4.265478552166234E1  -1.142897120081778E2  -1.796861553872782  -1.553194402734359E2  -1.803263835804097  -1.552758956790964E2  -4.439330976043283E1  -1.395518918062806E2  
 2.446000000000000E9    -4.171947313955928E1  -1.392972295911519E2  -1.809962798878965   1.714538958472153  -1.821763088496592   1.766729595309071  -5.024021644484746E1  -1.447791122981759E2  
 2.480500000000000E9    -3.663138001071692E1  -1.671225217256774E2  -1.819798456812838   1.587200129446031E2  -1.828448174643036   1.587576206851920E2  -4.033719658624592E1  -6.852319226466204E1  
 2.515000000000000E9    -3.887141813632199E1  -1.545052765894392E2  -1.838998471310753  -4.435269873947438E1  -1.846238556385565  -4.419882154005826E1  -3.824048805689917E1  -1.226908727184974E2  
 2.549500000000000E9    -3.374551731119385E1  -1.525681900632600E2  -1.850819522289312   1.126585376930432E2  -1.860566920782120   1.127965501838962E2  -3.281252520781708E1  -1.545871125096152E2  
 2.584000000000000E9    -3.751475966047628E1  -1.466113667769671E2  -1.864224105231942  -9.031439054074500E1  -1.878347053589041  -9.017027955322678E1  -3.689232025527403E1   1.710295973167881E2  
 2.618500000000000E9    -3.205400533759927E1  -1.504154023021040E2  -1.878045284097929   6.668680927653369E1  -1.881188388090330   6.684962433856236E1  -3.432482938953115E1   1.200867471416874E2  
 2.653000000000000E9    -3.996030690592239E1   1.447187312515623E2  -1.890243631502392  -1.363340651900931E2  -1.896978580492484  -1.361794753660251E2  -3.807230152284005E1  -1.778503633024472E2  
 2.687500000000000E9    -3.424203469653661E1   1.012617946735756E2  -1.898520401201456   2.073071889267412E1  -1.911143550238701   2.085106336914927E1  -3.229604509782103E1   1.437841775527652E2  
 2.722000000000000E9    -4.814168768585746E1   1.230960891002156E1  -1.911232166144001   1.777137807932480E2  -1.919938297349230   1.778569102414994E2  -3.922119670331499E1   1.574154190667897E2  
 2.756500000000000E9    -3.790232537455192E1  -1.449254964959299E2  -1.927679987693504  -2.526362522618782E1  -1.938894175796069  -2.519885637364416E1  -4.212841102842950E1  -1.194507284473441E2  
 2.791000000000000E9    -4.052328782309690E1   1.399750124603530E2  -1.938571281308729   1.317536469420867E2  -1.948613029812794   1.318499837525782E2  -4.350561176070349E1  -4.988472124240758E1  
 2.825500000000000E9    -4.144547635624571E1  -1.556301162481325E2  -1.951781007541883  -7.123983007489123E1  -1.959602240350405  -7.114675663407773E1  -4.050756159886290E1  -1.499217984452610E2  
 2.860000000000000E9    -3.492257698382532E1   1.632229267668052E2  -1.962918497918436   8.571536449372117E1  -1.970663435671774   8.583884829258531E1  -3.373343288719232E1  -1.592161099339423E2  
 2.894500000000000E9    -4.090644064347272E1   8.210088913556260E1  -1.980781141664429  -1.172738815989027E2  -1.991651392424752  -1.171621061575146E2  -3.441221070000636E1  -1.391579079812234E2  
 2.929000000000000E9    -3.821574758712855E1   1.796786715873983E2  -1.988820893170772   3.979693974643618E1  -1.997517336993606   3.989698664850616E1  -3.686990291328227E1   1.333365416799282E2  
 2.963500000000000E9    -3.788041731479733E1   1.429184891646225E2  -2.004433186766483  -1.632215204491711E2  -2.007341863017724  -1.631259510379902E2  -3.574510592695774E1   1.119846927348298E2  
 2.998000000000000E9    -3.601182262664734E1   1.663251090251087E2  -2.015799274778356  -6.197073302614485  -2.026979437650452  -6.153639667824118  -3.973167542338249E1   3.871628828918633E1  
 3.032500000000000E9    -3.558968602690748E1   1.550384691343875E2  -2.026737644214608   1.508094271981886E2  -2.038109808090425   1.508890487420681E2  -3.769302116615160E1  -2.382594281791705E1  
 3.067000000000000E9    -3.296511189666996E1  -1.645898625710706E2  -2.039862555762054  -5.221993181697054E1  -2.046260602701395  -5.216382262580673E1  -3.346583648555276E1  -1.237907779060675E2  
 3.101500000000000E9    -3.720470568046927E1   1.299995171696421E2  -2.055148694522285   1.047989332333285E2  -2.061753219204153   1.048705664133600E2  -3.606276215910659E1  -1.015896355053366E2  
 3.136000000000000E9    -2.861358525526871E1   1.654144193193059E2  -2.074974278492634  -9.817659647126085E1  -2.080979409315463  -9.816241414127850E1  -2.744097849853685E1  -1.771529346563212E2  
 3.170500000000000E9    -3.630569014669884E1  -1.038832301986401E2  -2.076466091089083   5.883582178596585E1  -2.083271480234957   5.893623674792087E1  -3.986753537156024E1   5.298380762713613E1  
 3.205000000000000E9    -4.043592729758147E1  -1.769784892214866E2  -2.085684299756388  -1.441563265692386E2  -2.093017853730534  -1.441298751240012E2  -4.341607057798661E1   1.692863708609753E2  
 3.239500000000000E9    -3.384603897799772E1   8.016116341380423E1  -2.108230218480110   1.288843148749464E1  -2.111573874798370   1.295276217910838E1  -3.014855226064968E1   1.463294678854360E2  
 3.274000000000000E9    -3.579882834089701E1  -1.642528630745192E2  -2.106036993062117   1.698952785776263E2  -2.119372862433884   1.699142507875695E2  -4.718214303675367E1  -4.240668220442737E1  
 3.308500000000000E9    -4.137389715691115E1   1.071590458948783E2  -2.126923371338545  -3.307532070533540E1  -2.130588123125279  -3.304404366089185E1  -4.197413820856942E1   8.685352251332826E1  
 3.343000000000000E9    -3.935629040273080E1  -1.300188455181688E2  -2.134803755271046   1.239293749402682E2  -2.142451012024444   1.239376574545968E2  -3.768146080768116E1   1.650735706095089E2  
 3.377500000000000E9    -3.777444474865040E1  -1.257869159794117E2  -2.142313081416178  -7.901207007009325E1  -2.152328545852332  -7.901051277999603E1  -3.768323083962704E1   1.339076867541082E2  
 3.412000000000000E9    -3.842613884115928E1  -1.229015447298595E2  -2.152839086691802   7.798885116362810E1  -2.163738473415449   7.797791403919935E1  -4.338281678952996E1   8.999276348338228E1  
 3.446500000000000E9    -2.869683344979106E1   1.725572802292953E2  -2.175821551389650  -1.250060652035887E2  -2.181705281692172  -1.249798254899511E2  -3.076174080478960E1   1.292788129074117E2  
 3.481000000000000E9    -3.256196618557743E1   1.084562813133396E2  -2.176307065012202   3.202625252342467E1  -2.191906484247811   3.206884823337536E1  -3.150187408618248E1   1.589824660898288E2  
 3.515500000000000E9    -3.351653952485250E1   1.347052317606186E2  -2.186610357826950  -1.710124329635256E2  -2.200963554874461  -1.708486552963945E2  -3.491482939607367E1   9.452702925114581E1  
