#  HZ   S   RI   R     50.00 
! Rohde & Schwarz ZVA24 4Ports - Version 3.12 - 1145.1110k26 SN: 100162
! Date: 2018-05-29 22:57:32
! Measurements: S11 S21 S12 S22 
! 
 1.000000000000000E8     3.362895548343658E-2  -1.059082709252834E-2   3.707719224621542E-5   5.807281195302494E-5  -2.001146349357441E-4   1.001943746814504E-4   9.950809478759766E-1   1.091827079653740E-1  
 1.010001449485433E8     3.178851306438446E-2  -1.793985813856125E-2  -3.330521285533905E-4  -5.320311902323738E-5   2.351523289689794E-5   1.113433318096213E-4   9.968702793121338E-1   1.060448139905930E-1  
 1.020002898970865E8     2.680121734738350E-2  -2.619684115052223E-2  -1.882303877209779E-5   4.520061338553205E-5   7.775874837534502E-5  -9.002098522614688E-6   9.907103776931763E-1   1.057853177189827E-1  
 1.030004348456298E8     2.000808529555798E-2  -2.997946739196777E-2  -5.294722504913807E-4  -7.524101965827867E-5  -5.159815191291273E-5   1.410428230883554E-4   9.879755973815918E-1   1.072781383991242E-1  
 1.040005797941731E8     1.498857047408819E-2  -3.523565456271172E-2   3.620103234425187E-4   1.516990596428514E-4   5.057228554505855E-5   5.193104734644294E-4   9.926574826240540E-1   1.074741259217262E-1  
 1.050007247427163E8     6.475509144365788E-3  -3.764649108052254E-2   8.916656042856630E-6   1.153502525994554E-4   2.406536368653178E-4   1.751239324221388E-4   9.840390682220459E-1   1.104719638824463E-1  
 1.060008696912596E8    -2.703597769141197E-3  -3.873011097311974E-2   7.696595275774598E-5   4.384746353025548E-5  -3.022378077730537E-4   3.673484570754226E-6   9.899624586105347E-1   1.127712428569794E-1  
 1.070010146398029E8    -1.070651132613421E-2  -3.572247177362442E-2   2.310928248334676E-4   1.051736035151407E-4   5.820685328217223E-5   2.423573641863186E-5   9.907574653625488E-1   1.123949587345123E-1  
 1.080011595883461E8    -1.877351477742195E-2  -3.147017583251000E-2  -1.929898280650377E-4   1.067356515704887E-5  -3.006755650858395E-5   1.946798874996603E-5   9.906351566314697E-1   1.097651422023773E-1  
 1.090013045368894E8    -2.680362388491631E-2  -2.536813914775848E-2   1.523915852885693E-5   2.979170531034470E-4   2.549773780629039E-4   1.772026880644262E-4   9.954828619956970E-1   1.134373992681503E-1  
 1.100014494854327E8    -3.312420472502708E-2  -1.811813190579414E-2  -1.071640945156105E-4   1.499312493251637E-4  -1.618585083633661E-4   1.638342946534976E-4   9.922382235527039E-1   1.156398802995682E-1  
 1.110015944339759E8    -3.262409940361977E-2  -7.712276652455330E-3  -4.735145193990320E-5  -1.169106872112025E-5  -3.413597733015195E-5   6.093070624046959E-6   9.908902049064636E-1   1.168957054615021E-1  
 1.120017393825192E8    -3.490266948938370E-2   8.360178908333182E-4  -1.008550316328183E-5  -1.770610542735085E-4  -9.993547428166494E-5   6.152058176667197E-6   9.881085753440857E-1   1.156525164842606E-1  
 1.130018843310625E8    -3.315418958663940E-2   9.995400905609131E-3   1.242278231075034E-4   2.917458477895707E-4  -2.271883022331167E-5  -8.636829443275929E-5   9.872042536735535E-1   1.173598170280457E-1  
 1.140020292796058E8    -2.828947268426418E-2   1.932377368211746E-2   1.155332574853674E-4  -5.207244248595089E-5   7.953095337143168E-5  -1.046769539243542E-4   9.913514256477356E-1   1.210948675870895E-1  
 1.150021742281490E8    -2.274608425796032E-2   2.708575315773487E-2   7.649793406017125E-5   2.319545747013763E-4   1.390290417475626E-4   7.101737719494849E-5   9.904059171676636E-1   1.180477440357208E-1  
 1.160023191766923E8    -1.271749101579189E-2   3.252557665109634E-2   7.879390614107251E-5  -4.447569663170725E-4  -2.805271360557526E-4  -4.091495065949857E-5   9.892923831939697E-1   1.181504130363464E-1  
 1.170024641252355E8    -2.956846961751580E-3   3.552363440394402E-2  -2.633091571624391E-5  -1.575533387949690E-4  -2.141937329724897E-6   1.224219013238326E-4   9.888683557510376E-1   1.229931265115738E-1  
 1.180026090737788E8     8.783631026744843E-3   3.563115373253822E-2  -2.987511288665701E-5   5.329657142283395E-5  -1.709987991489470E-4  -2.496230081305839E-5   9.902231693267822E-1   1.258086413145065E-1  
 1.190027540223221E8     1.763710007071495E-2   3.283173963427544E-2   3.398670742171817E-6   1.488349953433499E-4  -5.053365748608485E-5   1.892664004117250E-4   9.918966293334961E-1   1.228750348091126E-1  
 1.200028989708653E8     2.909846976399422E-2   2.753822132945061E-2  -1.363526534987614E-4  -2.500517293810844E-4  -3.657531487988308E-5   1.691691140877083E-4   9.873630404472351E-1   1.212909221649170E-1  
 1.210030439194086E8     3.509780764579773E-2   1.996971294283867E-2   1.560473901918158E-4   1.735145342536271E-4  -5.215516648604535E-5  -1.651731727179140E-4   9.823339581489563E-1   1.283050030469894E-1  
 1.220031888679519E8     4.129832237958908E-2   9.302492253482342E-3  -2.773353662632871E-5  -2.189649967476726E-4  -8.205350604839623E-5  -1.650004269322380E-4   9.895802140235901E-1   1.301805675029755E-1  
 1.230033338164952E8     4.526006057858467E-2   9.894184768199921E-5  -8.379029168281704E-5  -8.393830648856238E-5   1.227783504873514E-4   4.768565122503787E-5   9.897990226745606E-1   1.309355497360230E-1  
 1.240034787650384E8     4.520783200860024E-2  -1.156363449990749E-2  -2.240314934169874E-4   2.045783912763000E-5  -2.383432583883405E-4   2.264018839923665E-4   9.857148528099060E-1   1.297096014022827E-1  
 1.250036237135817E8     4.186877980828285E-2  -2.199191227555275E-2   1.175325814983808E-5   2.108883491018787E-4  -1.659383706282824E-4   3.982865309808403E-4   9.893501996994019E-1   1.290648579597473E-1  
 1.260037686621250E8     3.508707880973816E-2  -3.244949504733086E-2  -6.380175182130188E-5   6.079406375647523E-5   1.732382588670589E-5   7.323992031160742E-5   9.871592521667481E-1   1.318815350532532E-1  
 1.270039136106682E8     2.717164345085621E-2  -4.160691425204277E-2   3.325667930766940E-4  -3.609882551245391E-4   1.006477687042207E-4   7.972539606271312E-7   9.878843426704407E-1   1.353891491889954E-1  
 1.280040585592115E8     1.719127781689167E-2  -4.566846415400505E-2  -1.268630585400388E-4   3.926009230781347E-4  -2.159291907446459E-4  -1.421880879206583E-4   9.836887717247009E-1   1.361003816127777E-1  
 1.290042035077547E8     4.971927963197231E-3  -5.104398727416992E-2   4.117551361559890E-5  -8.770892236498185E-6   3.801572602242231E-4   1.335470878984779E-4   9.849575161933899E-1   1.373509168624878E-1  
 1.300043484562980E8    -7.637313567101955E-3  -5.084669589996338E-2   2.243442577309907E-5  -7.371461106231436E-5   1.246937899850309E-4   8.248808626376558E-6   9.891021847724915E-1   1.397016048431397E-1  
 1.310044934048413E8    -1.893389970064163E-2  -4.683824628591538E-2   1.395526051055640E-4   1.899259950732812E-4  -1.045849858201109E-4   8.055598300416023E-5   9.844247698783875E-1   1.366195380687714E-1  
 1.320046383533846E8    -3.014646656811237E-2  -3.970129787921906E-2  -2.170773950638250E-4   3.912117972504348E-5   1.785623026080430E-4  -1.862024873844348E-5   9.832259416580200E-1   1.386198103427887E-1  
 1.330047833019278E8    -3.930522873997688E-2  -2.931083366274834E-2  -7.110807200660929E-5  -7.574700430268422E-5   8.615378465037793E-5   3.539601493685041E-6   9.833344817161560E-1   1.376973837614059E-1  
 1.340049282504711E8    -4.490495473146439E-2  -1.848370395600796E-2  -2.451952022965998E-4   1.474891178077087E-4  -3.818134064204060E-5  -1.030355924740434E-4   9.818596839904785E-1   1.426045000553131E-1  
 1.350050731990144E8    -4.691915214061737E-2  -3.667846322059631E-3  -2.247691882075742E-4   3.715108323376626E-5   1.437443461327348E-5   1.054509630193934E-4   9.846554398536682E-1   1.417168527841568E-1  
 1.360052181475576E8    -4.651645198464394E-2   9.258945472538471E-3  -2.692393172765151E-5   6.194614252308384E-5   3.151590135530569E-5  -1.210260379593819E-4   9.843712449073792E-1   1.431941241025925E-1  
 1.370053630961009E8    -4.204550385475159E-2   2.376221865415573E-2   1.054539316101000E-4   6.545998621731997E-5   9.528223745292053E-5   1.822257618186995E-4   9.860178828239441E-1   1.462453156709671E-1  
 1.380055080446442E8    -3.401051461696625E-2   3.559352084994316E-2   1.471693103667349E-4   1.596836082171649E-4  -1.444140798412263E-4  -6.926254718564451E-5   9.879530072212219E-1   1.433831155300140E-1  
 1.390056529931874E8    -2.498505264520645E-2   4.589015617966652E-2  -3.337423549965024E-5   2.447399601805955E-4   1.416603481629863E-6  -2.200932212872431E-4   9.832760095596314E-1   1.492667496204376E-1  
 1.400057979417307E8    -1.093391794711351E-2   5.169557407498360E-2  -2.026826550718397E-4   2.340581122552976E-4  -6.540957110701129E-5   1.726218033581972E-5   9.862955212593079E-1   1.490690112113953E-1  
 1.410059428902740E8     2.313201315701008E-3   5.743691697716713E-2  -8.594191604061052E-5  -9.138894529314712E-5   1.357894361717627E-4   2.115201059496030E-4   9.865419268608093E-1   1.499433368444443E-1  
 1.420060878388172E8     1.830042898654938E-2   5.530782416462898E-2   1.636968809179962E-4  -1.249663764610887E-4   4.335100675234571E-5  -8.018746302695945E-5   9.856088757514954E-1   1.502047181129456E-1  
 1.430062327873605E8     3.259024769067764E-2   5.248935520648956E-2   7.758295396342874E-6  -1.691359648248181E-4  -3.909273436875083E-5   8.804578101262450E-5   9.854387640953064E-1   1.564984768629074E-1  
 1.440063777359037E8     4.476387053728104E-2   4.370126128196716E-2  -1.728528295643628E-4  -6.666577974101529E-7   2.025195426540449E-4  -4.051400173921138E-5   9.889613389968872E-1   1.536557525396347E-1  
 1.450065226844470E8     5.356260761618614E-2   3.173679113388062E-2   1.533341128379107E-4   9.750436583999544E-5  -8.206391794374213E-5  -8.441215868515428E-6   9.882509112358093E-1   1.541355401277542E-1  
 1.460066676329903E8     6.095666065812111E-2   1.768980547785759E-2   1.709701027721167E-4   5.859540760866366E-5  -2.344510903640185E-6   9.081220923690125E-5   9.834034442901611E-1   1.571756005287170E-1  
 1.470068125815336E8     6.361195445060730E-2   2.272556535899639E-3   2.081540296785533E-4  -5.561171565204859E-5  -7.928087143227458E-5  -7.206650479929522E-5   9.832391738891602E-1   1.588075459003449E-1  
 1.480069575300768E8     6.298534572124481E-2  -1.161643583327532E-2   1.835006987676024E-4   1.272729277843610E-4  -2.391995258221868E-5   3.556411456884234E-6   9.826032519340515E-1   1.600166708230972E-1  
 1.490071024786201E8     5.652980506420136E-2  -2.794629149138928E-2  -1.534404582343996E-4  -8.070430340012536E-5  -9.006086474983022E-5   6.517344445455819E-5   9.822872877120972E-1   1.619665324687958E-1  
 1.500072474271634E8     4.734232276678085E-2  -4.056902602314949E-2   6.994752038735896E-5   3.659744397737086E-4  -2.944614243460819E-5  -6.942034815438092E-5   9.850273132324219E-1   1.583757549524307E-1  
 1.510073923757066E8     3.527803719043732E-2  -5.146763101220131E-2  -4.733375681098551E-5   1.524249728390714E-5   1.753544202074409E-4  -7.006351370364428E-5   9.812230467796326E-1   1.640563160181046E-1  
 1.520075373242499E8     2.083146385848522E-2  -5.762162059545517E-2   8.736539166420698E-5   9.746812429511920E-5  -5.950629201834090E-5   2.577638224465773E-5   9.817482829093933E-1   1.622829437255859E-1  
 1.530076822727932E8     5.063986871391535E-3  -6.084772571921349E-2   1.931713995872997E-6   3.335534129291773E-4   7.607943553011864E-5   1.469949638703838E-4   9.829493761062622E-1   1.632454097270966E-1  
 1.540078272213364E8    -1.051370799541473E-2  -5.990764871239662E-2   5.968497134745121E-6  -7.793166878400371E-5   2.557258994784206E-4  -7.262412691488862E-5   9.775761365890503E-1   1.653214395046234E-1  
 1.550079721698797E8    -2.697469666600227E-2  -5.521715804934502E-2  -4.841609552386217E-5   2.406186467851512E-5  -6.699207006022334E-5  -8.194264955818653E-5   9.831358194351196E-1   1.673338115215302E-1  
 1.560081171184230E8    -3.949742391705513E-2  -4.463091865181923E-2   1.347893266938627E-4   1.831124973250553E-4   4.224602525937371E-5   5.753157529397868E-5   9.832137823104858E-1   1.638580262660980E-1  
 1.570082620669662E8    -4.973438754677773E-2  -3.315004706382752E-2   2.754035085672513E-5   1.328293292317540E-4   3.319717143313028E-5   3.365829616086558E-5   9.824410080909729E-1   1.675912439823151E-1  
 1.580084070155095E8    -5.487345904111862E-2  -1.929239183664322E-2  -7.839725003577769E-5  -1.131684184656479E-4  -9.482677705818787E-5  -1.354322466795566E-5   9.779095649719238E-1   1.697410345077515E-1  
 1.590085519640528E8    -5.758526921272278E-2  -3.501230850815773E-3   1.255931128980592E-4  -8.332512516062707E-5  -2.915302175097168E-4   8.609864744357765E-5   9.793250560760498E-1   1.718921363353729E-1  
 1.600086969125960E8    -5.486265569925308E-2   1.135931722819805E-2  -1.833474816521630E-4  -5.891898035770282E-5  -1.761704770615324E-4   6.560795009136200E-5   9.760413765907288E-1   1.693978607654572E-1  
 1.610088418611393E8    -4.886940494179726E-2   2.548973634839058E-2  -1.241385907633230E-4  -2.181457384722307E-4  -1.073986568371765E-4   1.797489967430010E-4   9.779551625251770E-1   1.662526726722717E-1  
 1.620089868096826E8    -3.819295391440392E-2   3.735433518886566E-2   1.829759712563828E-4   1.868338149506599E-4   1.205687003675848E-4  -7.515612378483638E-5   9.756903052330017E-1   1.743260174989700E-1  
 1.630091317582258E8    -2.527027949690819E-2   4.581313207745552E-2   1.543605758342892E-4   9.840883285505697E-5   3.754967838176526E-5   1.469714334234595E-4   9.773715138435364E-1   1.733704954385757E-1  
 1.640092767067691E8    -1.020311657339335E-2   5.047729238867760E-2   3.515789285302162E-4   2.724873775150627E-4   1.207078530569561E-4  -7.899804040789604E-5   9.754699468612671E-1   1.747187674045563E-1  
 1.650094216553124E8     4.863536451011896E-3   5.236613750457764E-2   1.629743201192468E-4  -4.991887180949561E-5  -1.107315038098022E-4  -3.212790488760220E-6   9.754839539527893E-1   1.774463504552841E-1  
 1.660095666038556E8     2.059066481888294E-2   4.723517969250679E-2   4.528939462034032E-5   1.199269609060139E-4  -7.005095540080220E-5  -6.576543455594219E-6   9.770067930221558E-1   1.709599792957306E-1  
 1.670097115523989E8     3.411760926246643E-2   3.929235041141510E-2   2.315757010364905E-4  -1.172118863905780E-4   7.940897921798751E-5  -5.157004579814384E-6   9.765520691871643E-1   1.779668331146240E-1  
 1.680098565009422E8     4.591420292854309E-2   2.820763736963272E-2   4.218772664899007E-5  -1.712620141915977E-4   6.645048415521160E-5   7.856602314859629E-5   9.764150977134705E-1   1.794504076242447E-1  
 1.690100014494854E8     5.357425287365913E-2   1.504292339086533E-2  -5.448899901239201E-5   1.388528289680835E-6  -2.274452417623252E-4  -5.291833076626062E-5   9.735965132713318E-1   1.771419048309326E-1  
 1.700101463980287E8     5.767749994993210E-2  -3.589921398088336E-4  -1.855443697422743E-4  -5.626146230497398E-5   8.707292727194727E-5  -5.976497050141916E-5   9.737285971641541E-1   1.825619190931320E-1  
 1.710102913465720E8     5.759235844016075E-2  -1.492258533835411E-2   4.590511525748298E-5   2.096100215567276E-4   1.581572141731158E-4  -1.052932348102331E-4   9.748221635818481E-1   1.821984499692917E-1  
 1.720104362951152E8     5.264211073517799E-2  -2.883068844676018E-2  -8.462031109957025E-5   1.582267868798226E-4  -1.989745760511141E-5   1.068657820724184E-5   9.730559587478638E-1   1.834788024425507E-1  
 1.730105812436585E8     4.443467035889626E-2  -4.168173670768738E-2  -8.901311230147257E-5   9.522460459265858E-5   1.468109549023211E-4  -2.571278673713096E-5   9.741874337196350E-1   1.886898577213287E-1  
 1.740107261922018E8     3.278033062815666E-2  -5.250034853816032E-2   1.965410774573684E-4  -1.189059985335916E-4   2.025455469265580E-4   7.447904499713332E-5   9.754143357276917E-1   1.871751844882965E-1  
 1.750108711407450E8     1.811977475881577E-2  -5.837152525782585E-2   2.095824311254546E-4  -1.225563664775109E-5  -1.658159135331516E-6  -7.504221139242873E-5   9.772731065750122E-1   1.902655065059662E-1  
 1.760110160892883E8     3.782351966947317E-3  -6.102889403700829E-2  -1.500190701335669E-4  -1.830817200243473E-4  -2.590002804936376E-5  -3.006890074175317E-5   9.739394187927246E-1   1.891647577285767E-1  
 1.770111610378315E8    -1.141654700040817E-2  -6.058585643768311E-2   2.489850885467604E-6  -2.703799109440297E-4  -1.270334469154477E-4   3.851913061225787E-5   9.767091870307922E-1   1.902391314506531E-1  
 1.780113059863749E8    -2.631102129817009E-2  -5.421934276819229E-2  -8.878818334778771E-6   1.643316863919608E-5  -9.296229109168053E-5   3.175861274939962E-5   9.791701436042786E-1   1.906838566064835E-1  
 1.790114509349181E8    -3.922113403677940E-2  -4.544639214873314E-2   1.210760456160642E-4  -4.516015906119719E-5   1.125064954976551E-4  -2.256634470541030E-4   9.745912551879883E-1   1.893574446439743E-1  
 1.800115958834614E8    -4.877830669283867E-2  -3.364195302128792E-2  -1.144894195022062E-4   2.308370894752443E-4   1.978047512238845E-4   1.525499828858301E-4   9.743108153343201E-1   1.958696842193604E-1  
 1.810117408320046E8    -5.614045634865761E-2  -1.878269389271736E-2   1.809912646422163E-4  -5.315629096003249E-5  -1.710128417471424E-4  -1.231269852723926E-4   9.739152193069458E-1   1.974879205226898E-1  
 1.820118857805479E8    -5.851957574486733E-2  -3.873014822602272E-3  -9.426046744920313E-5   1.997066283365712E-4  -3.878736970364116E-5  -4.495641405810602E-5   9.787065386772156E-1   1.967208087444305E-1  
 1.830120307290912E8    -5.754731595516205E-2   1.125407218933106E-2   1.760035956976935E-4  -2.164943871321157E-4  -1.616983718122356E-5   1.260644785361365E-4   9.796671867370606E-1   1.979140341281891E-1  
 1.840121756776344E8    -5.184411630034447E-2   2.641545981168747E-2  -2.141699078492820E-4  -7.372154868789949E-6  -2.448896339046769E-5   1.729320210870355E-4   9.743166565895081E-1   1.933313906192780E-1  
 1.850123206261777E8    -4.246424511075020E-2   3.854282945394516E-2  -4.652586358133704E-5   7.043283403618261E-5   1.786548637028318E-5   2.674110146472231E-5   9.726225137710571E-1   1.967563331127167E-1  
 1.860124655747210E8    -3.036519885063171E-2   4.794929176568985E-2   3.269578883191571E-5  -7.657740934519097E-5   6.150540866656229E-5  -2.609952571219765E-5   9.717940688133240E-1   1.961047053337097E-1  
 1.870126105232642E8    -1.643257960677147E-2   5.315448716282845E-2   8.121084829326719E-5   3.852216650557239E-6   9.608575055608526E-5   9.202236833516508E-5   9.746471643447876E-1   1.983958482742310E-1  
 1.880127554718075E8    -2.034598961472511E-3   5.557199940085411E-2  -4.256872052792460E-4   2.514558145776391E-4   7.846107473596931E-5  -2.638280420796946E-5   9.736447334289551E-1   2.020582854747772E-1  
 1.890129004203508E8     1.387334428727627E-2   5.238035321235657E-2  -2.188006619689986E-4   2.374817631789483E-5   1.754932964104228E-5  -9.563686762703583E-5   9.758122563362122E-1   2.040563523769379E-1  
 1.900130453688940E8     2.710185945034027E-2   4.551298171281815E-2  -1.909223210532218E-4   1.858786854427308E-4  -1.627820893190801E-4  -2.182499338232447E-5   9.728459119796753E-1   2.037762254476547E-1  
 1.910131903174373E8     3.910346701741219E-2   3.644136711955071E-2   2.448765189910773E-5  -1.829056127462536E-4  -1.417935709469020E-4   3.165084490319714E-5   9.763388037681580E-1   2.029846459627152E-1  
 1.920133352659806E8     4.741649702191353E-2   2.323960140347481E-2   1.255678944289684E-4  -8.230901585193351E-5   1.517167402198538E-4  -1.296434056712315E-4   9.730413556098938E-1   2.052881270647049E-1  
 1.930134802145239E8     5.365112051367760E-2   9.047201834619045E-3   3.163730434607714E-5  -1.284591271542013E-4   1.489550049882382E-4   2.004793350351974E-4   9.723929166793823E-1   2.045334279537201E-1  
