#  HZ   S   RI   R     50.00 
! Rohde & Schwarz ZVA24 4Ports - Version 3.12 - 1145.1110k26 SN: 100162
! Date: 2018-06-04 05:56:55
! Measurements: S11 S21 S12 S22 
! 
 1.000000000000000E8     1.008987892419100E-2   8.307453244924545E-3  -6.034224629402161E-1   7.496694922447205E-1  -6.058441400527954E-1   7.783807516098023E-1   1.263253670185804E-2  -6.395999807864428E-4  
 1.010001449485433E8     1.057337969541550E-2   1.021679863333702E-2  -5.272555947303772E-1   8.080319762229919E-1  -5.299516320228577E-1   8.366968631744385E-1   1.078547723591328E-2   1.209144946187735E-3  
 1.020002898970865E8     1.235472876578569E-2   8.704299107193947E-3  -4.405092298984528E-1   8.490418195724487E-1  -4.322033822536469E-1   8.831987380981445E-1   1.218259055167437E-2  -2.297727856785059E-3  
 1.030004348456298E8     1.353473681956530E-2   9.497144259512425E-3  -3.495059013366699E-1   8.996798396110535E-1  -3.466164469718933E-1   9.259777069091797E-1   1.162678282707930E-2  -3.039381466805935E-3  
 1.040005797941731E8     1.452389918267727E-2   7.675877306610346E-3  -2.540137469768524E-1   9.265477061271668E-1  -2.484596371650696E-1   9.546954631805420E-1   1.087466720491648E-2  -4.244622308760881E-3  
 1.050007247427163E8     1.736340485513210E-2   6.257988512516022E-3  -1.529240459203720E-1   9.469701051712036E-1  -1.413567513227463E-1   9.731558561325073E-1   1.229991950094700E-2  -6.864793598651886E-3  
 1.060008696912596E8     1.544979959726334E-2   5.539216101169586E-3  -5.919877439737320E-2   9.583796262741089E-1  -4.546655714511871E-2   9.843534827232361E-1   9.920698590576649E-3  -6.993838585913181E-3  
 1.070010146398029E8     1.705823652446270E-2   4.719147458672524E-3   4.428248107433319E-2   9.616703987121582E-1   5.231855809688568E-2   9.906175732612610E-1   8.271928876638413E-3  -5.928606260567904E-3  
 1.080011595883461E8     1.613366603851318E-2   1.409239950589836E-3   1.408464312553406E-1   9.497297406196594E-1   1.576858162879944E-1   9.718230962753296E-1   6.847908254712820E-3  -7.203174754977226E-3  
 1.090013045368894E8     1.452380511909723E-2   2.342966181458905E-4   2.373570203781128E-1   9.325043559074402E-1   2.564162611961365E-1   9.485964775085449E-1   6.966542918235064E-3  -7.307570427656174E-3  
 1.100014494854327E8     1.330903451889753E-2   1.083638053387404E-4   3.350277245044708E-1   9.016101956367493E-1   3.558099567890167E-1   9.183966517448425E-1   4.379915073513985E-3  -6.256550084799528E-3  
 1.110015944339759E8     1.087076775729656E-2  -2.986140549182892E-3   4.205622375011444E-1   8.626668453216553E-1   4.402731359004974E-1   8.760744929313660E-1   1.646635006181896E-3  -5.903505254536867E-3  
 1.120017393825192E8     6.559285335242748E-3  -5.416513420641422E-3   5.053325295448303E-1   8.191857337951660E-1   5.341219305992127E-1   8.318085074424744E-1  -9.906513150781393E-5  -3.815144300460815E-3  
 1.130018843310625E8     6.173594389110804E-3  -3.084900556132197E-3   5.879016518592835E-1   7.583370804786682E-1   6.146197915077210E-1   7.676991820335388E-1   2.505340962670744E-4  -3.747604321688414E-3  
 1.140020292796058E8     1.646328601054847E-3  -1.768503105267882E-3   6.653218269348145E-1   6.996060609817505E-1   6.904017329216003E-1   7.009741663932800E-1  -1.953062368556857E-3  -2.551881829276681E-3  
 1.150021742281490E8     9.737798827700317E-4  -3.277668729424477E-3   7.311568856239319E-1   6.260467171669006E-1   7.576946020126343E-1   6.264849901199341E-1  -3.247176995500922E-3  -6.937300204299390E-4  
 1.160023191766923E8    -3.899816074408591E-4   3.244444960728288E-4   7.918841838836670E-1   5.441280007362366E-1   8.236232399940491E-1   5.444639325141907E-1  -1.620521303266287E-3   2.266342053189874E-3  
 1.170024641252355E8    -8.524141740053892E-4   3.258427372202277E-3   8.455868363380432E-1   4.609906673431397E-1   8.736829161643982E-1   4.568428099155426E-1  -3.105109557509422E-3   1.476569217629731E-3  
 1.180026090737788E8    -1.867363811470568E-3   2.703514648601413E-3   8.857618570327759E-1   3.730974197387695E-1   9.100621342658997E-1   3.657512962818146E-1  -2.902147592976689E-3   6.271488964557648E-4  
 1.190027540223221E8    -2.849839394912124E-3   4.934391006827354E-3   9.241178035736084E-1   2.830155789852142E-1   9.459912776947022E-1   2.703233957290649E-1  -4.152979236096144E-4   2.920176601037383E-3  
 1.200028989708653E8    -3.911844760295935E-5   6.657103076577187E-3   9.404442310333252E-1   1.850451678037643E-1   9.625880718231201E-1   1.682174950838089E-1   9.644260862842202E-4   3.255760762840509E-3  
 1.210030439194086E8     1.304788456764072E-4   8.566482923924923E-3   9.636614322662354E-1   8.465863019227982E-2   9.770755767822266E-1   7.190696150064468E-2   1.727263152133673E-4   3.728805342689157E-3  
 1.220031888679519E8     2.330577000975609E-3   8.537025190889835E-3   9.628546833992004E-1  -1.334538962692022E-2   9.810029864311218E-1  -3.061584755778313E-2   1.061364309862256E-3   4.057585261762142E-3  
 1.230033338164952E8     3.800153732299805E-3   8.164579048752785E-3   9.542782902717590E-1  -1.089621186256409E-1   9.749053716659546E-1  -1.319250762462616E-1  -1.002742792479694E-3   4.008329007774591E-3  
 1.240034787650384E8     6.856056861579418E-3   7.472302298992872E-3   9.382065534591675E-1  -2.076032012701035E-1   9.515724778175354E-1  -2.290563732385635E-1   1.552418805658817E-3   3.538015531376004E-3  
 1.250036237135817E8     7.277879863977432E-3   6.676455494016409E-3   9.117541909217835E-1  -3.022391796112061E-1   9.251646995544434E-1  -3.209136426448822E-1   1.233750022947788E-3   2.972965827211738E-3  
 1.260037686621250E8     9.077790193259716E-3   6.398192606866360E-3   8.732043504714966E-1  -3.997043073177338E-1   8.861528635025024E-1  -4.181429445743561E-1   1.433275174349546E-3   4.872111603617668E-3  
 1.270039136106682E8     9.949748404324055E-3   4.428574815392494E-3   8.287907838821411E-1  -4.844651818275452E-1   8.438297510147095E-1  -5.078967809677124E-1   3.840050194412470E-4   4.740441683679819E-3  
 1.280040585592115E8     1.237077824771404E-2   1.574809895828366E-3   7.749687433242798E-1  -5.642278194427490E-1   7.790349125862122E-1  -5.869569778442383E-1   2.582294400781393E-3   4.261304158717394E-3  
 1.290042035077547E8     1.041083224117756E-2   6.120711914263666E-4   7.153377532958984E-1  -6.451714038848877E-1   7.195594906806946E-1  -6.635537147521973E-1   1.657319255173206E-3   4.517196211963892E-3  
 1.300043484562980E8     1.080335769802332E-2  -6.860399735160172E-4   6.406729221343994E-1  -7.159418463706970E-1   6.454797983169556E-1  -7.363222241401672E-1   2.767934696748853E-3   5.481367465108633E-3  
 1.310044934048413E8     1.081788726150990E-2  -2.737657632678747E-3   5.634461045265198E-1  -7.747672200202942E-1   5.683109164237976E-1  -7.942699790000916E-1   5.537249613553286E-3   4.909980110824108E-3  
 1.320046383533846E8     9.497687220573425E-3  -4.755870439112186E-3   4.833933711051941E-1  -8.319837450981140E-1   4.803943037986755E-1  -8.481222391128540E-1   5.999040789902210E-3   5.893655121326447E-3  
 1.330047833019278E8     1.007278449833393E-2  -3.654344007372856E-3   3.971194624900818E-1  -8.755144476890564E-1   3.944280445575714E-1  -8.954821228981018E-1   7.299060001969338E-3   4.564894828945398E-3  
 1.340049282504711E8     9.421410039067268E-3  -4.516277462244034E-3   3.050952255725861E-1  -9.097501039505005E-1   3.007788062095642E-1  -9.271137118339539E-1   9.658415801823139E-3   3.415687941014767E-3  
 1.350050731990144E8     9.407530538737774E-3  -5.336293950676918E-3   2.074833661317825E-1  -9.367307424545288E-1   2.021582573652268E-1  -9.557473063468933E-1   8.884341455996037E-3   1.846237282734364E-4  
 1.360052181475576E8     8.266571909189224E-3  -5.454376339912415E-3   1.102180555462837E-1  -9.528539776802063E-1   1.069183126091957E-1  -9.682216644287109E-1   9.440462104976177E-3  -1.360301859676838E-3  
 1.370053630961009E8     7.482268847525120E-3  -7.268192246556282E-3   9.775438345968723E-3  -9.541035890579224E-1   5.368050187826157E-4  -9.781063199043274E-1   8.457166142761707E-3   5.049523897469044E-4  
 1.380055080446442E8     6.527062505483627E-3  -7.578859105706215E-3  -8.578067272901535E-2  -9.525465965270996E-1  -9.563857316970825E-2  -9.727090597152710E-1   7.036483380943537E-3  -8.904144051484764E-4  
 1.390056529931874E8     3.354809246957302E-3  -7.493062410503626E-3  -1.861352771520615E-1  -9.408980607986450E-1  -1.972090303897858E-1  -9.552092552185059E-1   6.736980751156807E-3  -9.898747084662318E-4  
 1.400057979417307E8     4.129888955503702E-3  -7.436018902808428E-3  -2.768728733062744E-1  -9.138854146003723E-1  -2.911534011363983E-1  -9.329226016998291E-1   5.911522079259157E-3  -2.594580408185720E-3  
 1.410059428902740E8     1.749954419210553E-3  -6.648102309554815E-3  -3.723524212837219E-1  -8.843445777893066E-1  -3.847934901714325E-1  -8.952648639678955E-1   5.339486990123987E-3  -1.584928249940276E-3  
 1.420060878388172E8     3.991306293755770E-4  -6.153919734060764E-3  -4.600050747394562E-1  -8.380685448646545E-1  -4.765273034572601E-1  -8.575014472007752E-1   3.840104443952441E-3  -6.982390768826008E-4  
 1.430062327873605E8    -2.032194752246141E-3  -5.393904168158770E-3  -5.495486259460449E-1  -7.915643453598023E-1  -5.606188774108887E-1  -7.987974882125855E-1   3.120560431852937E-3  -1.305205223616213E-4  
 1.440063777359037E8    -1.606776146218181E-3  -5.204122047871351E-3  -6.224519610404968E-1  -7.260295748710632E-1  -6.398746967315674E-1  -7.371497154235840E-1   4.302326589822769E-3   2.564909809734672E-4  
 1.450065226844470E8    -2.815516432747245E-3  -3.791215596720576E-3  -6.912171244621277E-1  -6.580178141593933E-1  -7.130423784255981E-1  -6.690525412559509E-1   2.787499688565731E-3   9.890496730804443E-4  
 1.460066676329903E8    -2.917716745287180E-3  -3.450995078310370E-3  -7.592747807502747E-1  -5.829447507858276E-1  -7.787461280822754E-1  -5.937903523445129E-1   3.351478837430477E-3   1.250711386092007E-3  
 1.470068125815336E8    -3.711197990924120E-3  -2.835852326825261E-3  -8.147933483123779E-1  -5.025462508201599E-1  -8.313646912574768E-1  -5.093087553977966E-1   4.471280612051487E-3   2.467418089509010E-3  
 1.480069575300768E8    -4.367182031273842E-3  -1.497917342931032E-3  -8.621691465377808E-1  -4.134480953216553E-1  -8.813881874084473E-1  -4.204178750514984E-1   4.036943428218365E-3   2.882936503738165E-3  
 1.490071024786201E8    -3.297564107924700E-3  -1.443305402062833E-3  -8.948730230331421E-1  -3.262204527854919E-1  -9.201118946075440E-1  -3.295043706893921E-1   4.235922824591398E-3   9.824377484619618E-4  
 1.500072474271634E8    -4.927592352032661E-3  -8.283350034616888E-4  -9.251788258552551E-1  -2.303580641746521E-1  -9.483459591865540E-1  -2.294118404388428E-1   4.853488877415657E-3   2.975035225972533E-3  
 1.510073923757066E8    -4.628802184015513E-3  -9.494213154539466E-4  -9.431623220443726E-1  -1.315682381391525E-1  -9.646608829498291E-1  -1.367592513561249E-1   6.998078897595406E-3   2.102576196193695E-3  
 1.520075373242499E8    -3.171283751726151E-3  -1.220190024469048E-4  -9.537018537521362E-1  -3.758646547794342E-2  -9.781727194786072E-1  -3.397955000400543E-2   6.191963795572519E-3   2.230881713330746E-3  
 1.530076822727932E8    -3.094610525295138E-3   8.897035149857402E-4  -9.487380385398865E-1   6.271435320377350E-2  -9.725825190544128E-1   6.446040421724320E-2   7.132890634238720E-3   1.127076451666653E-3  
 1.540078272213364E8    -2.211677609011531E-3   1.102546462789178E-3  -9.363203048706055E-1   1.581308394670487E-1  -9.606218338012695E-1   1.658761799335480E-1   7.159088272601366E-3   9.140220936387777E-4  
 1.550079721698797E8    -2.828844590112567E-3   1.402859808877111E-3  -9.198588728904724E-1   2.551644742488861E-1  -9.397282004356384E-1   2.636773288249970E-1   6.965856533497572E-3  -7.879115873947740E-4  
 1.560081171184230E8    -1.022549229674041E-3   1.838305150158703E-3  -8.861759305000305E-1   3.477490246295929E-1  -9.079635143280029E-1   3.598743081092835E-1   7.994770072400570E-3  -1.840590732172132E-3  
 1.570082620669662E8     7.153683109208942E-4   3.989588003605604E-4  -8.510299921035767E-1   4.353835880756378E-1  -8.640303015708923E-1   4.431623816490173E-1   8.563349954783917E-3  -1.280596479773521E-4  
 1.580084070155095E8     2.062359126284719E-3  -5.042477860115469E-4  -7.996463775634766E-1   5.222018957138062E-1  -8.158119320869446E-1   5.348023772239685E-1   8.746914565563202E-3  -4.185106605291367E-3  
 1.590085519640528E8     3.256221069023013E-3  -1.025662757456303E-3  -7.389300465583801E-1   5.985915660858154E-1  -7.570574283599854E-1   6.181321144104004E-1   7.512300740927458E-3  -5.269934888929129E-3  
 1.600086969125960E8     3.352611092850566E-3  -2.903247252106667E-3  -6.747556328773499E-1   6.704347729682922E-1  -6.878935694694519E-1   6.906859278678894E-1   6.827967241406441E-3  -6.470764521509409E-3  
 1.610088418611393E8     4.251061473041773E-3  -3.315949346870184E-3  -6.018911600112915E-1   7.384367585182190E-1  -6.113840937614441E-1   7.602267861366272E-1   5.692170932888985E-3  -8.663883432745934E-3  
 1.620089868096826E8     3.262682119384408E-3  -6.541269365698099E-3  -5.241819024085999E-1   7.922133207321167E-1  -5.308094620704651E-1   8.143226504325867E-1   5.548283457756043E-3  -6.938811391592026E-3  
 1.630091317582258E8     3.449704730883241E-3  -6.244498770684004E-3  -4.417545795440674E-1   8.428987264633179E-1  -4.432967603206635E-1   8.621476888656616E-1   4.342097789049149E-3  -8.083783090114594E-3  
 1.640092767067691E8     1.897168811410666E-3  -7.923699915409088E-3  -3.484390676021576E-1   8.857278823852539E-1  -3.512509763240814E-1   9.066704511642456E-1   2.563196467235684E-3  -8.614611811935902E-3  
 1.650094216553124E8     1.367953838780522E-3  -6.482722237706184E-3  -2.598918974399567E-1   9.162971377372742E-1  -2.553018927574158E-1   9.344296455383301E-1   2.748969709500670E-3  -8.766938932240009E-3  
 1.660095666038556E8     1.126060960814357E-3  -8.163533173501492E-3  -1.618213355541229E-1   9.344498515129089E-1  -1.586188226938248E-1   9.604918956756592E-1   3.025188110768795E-3  -8.509880863130093E-3  
 1.670097115523989E8     1.446687732823193E-3  -6.875662598758936E-3  -6.619380414485931E-2   9.486129283905029E-1  -5.947295948863030E-2   9.725880622863770E-1   1.770743634551764E-3  -7.731450721621513E-3  
 1.680098565009422E8     2.523409202694893E-3  -8.006401360034943E-3   3.199741244316101E-2   9.487607479095459E-1   3.536209091544151E-2   9.665348529815674E-1   1.285834587179124E-3  -6.983098573982716E-3  
 1.690100014494854E8     2.408623695373535E-3  -6.228778511285782E-3   1.278623938560486E-1   9.414731264114380E-1   1.361525654792786E-1   9.603818058967590E-1   1.626686891540885E-3  -8.274729363620281E-3  
 1.700101463980287E8     1.946175820194185E-3  -5.522348918020725E-3   2.274399995803833E-1   9.224032163619995E-1   2.360630929470062E-1   9.417592287063599E-1   3.484069020487368E-4  -9.013284929096699E-3  
 1.710102913465720E8     2.449376974254847E-3  -3.253550035879016E-3   3.181993663311005E-1   8.912420272827148E-1   3.300022780895233E-1   9.120433926582336E-1   1.587686419952661E-4  -9.837755002081394E-3  
 1.720104362951152E8     2.503823721781373E-3  -2.220134250819683E-3   4.072718620300293E-1   8.582720756530762E-1   4.230095446109772E-1   8.722159266471863E-1  -2.115004463121295E-3  -8.836126886308193E-3  
 1.730105812436585E8     3.525607520714402E-3  -2.117046155035496E-3   4.953232407569885E-1   8.084345459938049E-1   5.109960436820984E-1   8.243484497070313E-1  -3.936713561415672E-3  -8.382896892726421E-3  
 1.740107261922018E8     4.993799142539501E-3  -1.062406226992607E-3   5.738874077796936E-1   7.547769546508789E-1   5.937750339508057E-1   7.660934329032898E-1  -5.407358054071665E-3  -7.754177320748568E-3  
 1.750108711407450E8     5.698469467461109E-3  -4.551250312943012E-4   6.501607298851013E-1   6.922799944877625E-1   6.672577857971191E-1   7.028841376304627E-1  -6.937969010323286E-3  -4.038948100060225E-3  
 1.760110160892883E8     7.074347697198391E-3  -4.258842091076076E-4   7.145411968231201E-1   6.203253269195557E-1   7.359499335289002E-1   6.262781620025635E-1  -7.752756122499704E-3  -1.994676189497113E-3  
 1.770111610378315E8     7.238298654556274E-3  -4.465446399990469E-4   7.742969393730164E-1   5.468037128448486E-1   7.947456836700440E-1   5.515833497047424E-1  -8.473964408040047E-3   1.710000564344227E-3  
 1.780113059863749E8     7.662632036954165E-3  -7.354476838372648E-4   8.269021511077881E-1   4.652174711227417E-1   8.493700027465820E-1   4.674019515514374E-1  -7.757097017019987E-3   5.000103265047073E-3  
 1.790114509349181E8     7.917034439742565E-3  -5.024818819947541E-4   8.697478175163269E-1   3.765430152416229E-1   8.934721946716309E-1   3.777734339237213E-1  -5.856012925505638E-3   7.121657952666283E-3  
 1.800115958834614E8     7.374183740466833E-3  -7.671093917451799E-4   9.042155146598816E-1   2.870439291000366E-1   9.245356321334839E-1   2.825236022472382E-1  -3.830208210274577E-3   9.879506193101406E-3  
 1.810117408320046E8     7.154076825827360E-3   1.881460921140388E-4   9.246342778205872E-1   1.935480982065201E-1   9.495110511779785E-1   1.869678199291229E-1  -2.290264936164022E-3   1.148668210953474E-2  
 1.820118857805479E8     6.446144077926874E-3  -3.704547125380486E-4   9.430385231971741E-1   9.688945859670639E-2   9.608088731765747E-1   8.664421737194061E-2   1.934412168338895E-3   1.274777203798294E-2  
 1.830120307290912E8     6.211687810719013E-3   1.532701309770346E-3   9.473021030426025E-1  -8.695339784026146E-4   9.664068222045898E-1  -1.188168115913868E-2   6.269725039601326E-3   1.302536483854055E-2  
 1.840121756776344E8     6.258190143853426E-3   1.758130500093103E-3   9.432408213615418E-1  -9.827456623315811E-2   9.578559994697571E-1  -1.132784783840179E-1   8.251579478383064E-3   1.130047813057900E-2  
 1.850123206261777E8     6.786583457142115E-3   2.648753812536597E-3   9.245499968528748E-1  -1.949439197778702E-1   9.433498978614807E-1  -2.090895026922226E-1   1.211922615766525E-2   9.485918097198010E-3  
 1.860124655747210E8     7.975039072334766E-3   5.069279111921787E-3   9.021126627922058E-1  -2.861097157001495E-1   9.160410165786743E-1  -3.075518906116486E-1   1.367946434766054E-2   6.431895773857832E-3  
 1.870126105232642E8     1.141810417175293E-2   4.166603088378906E-3   8.680726885795593E-1  -3.816260993480682E-1   8.799899220466614E-1  -3.987151980400085E-1   1.528206933289766E-2   2.352086361497641E-3  
 1.880127554718075E8     1.277530472725630E-2   2.266261726617813E-3   8.216086030006409E-1  -4.650497734546661E-1   8.333427309989929E-1  -4.857540130615234E-1   1.597259193658829E-2  -2.228798577561975E-3  
 1.890129004203508E8     1.431839913129807E-2   5.137930857017636E-4   7.745833992958069E-1  -5.488771796226502E-1   7.791466712951660E-1  -5.686779022216797E-1   1.505913026630878E-2  -7.087411358952522E-3  
 1.900130453688940E8     1.443537045270205E-2  -2.743160352110863E-3   7.094304561614990E-1  -6.282788515090942E-1   7.157719731330872E-1  -6.483533382415772E-1   1.222908683121204E-2  -9.904494509100914E-3  
 1.910131903174373E8     1.502990256994963E-2  -5.041042342782021E-3   6.439362168312073E-1  -6.966120004653931E-1   6.472102403640747E-1  -7.150518894195557E-1   8.113563992083073E-3  -1.222972478717566E-2  
 1.920133352659806E8     1.261404622346163E-2  -6.995145231485367E-3   5.696319341659546E-1  -7.564050555229187E-1   5.711670517921448E-1  -7.781814336776733E-1   3.374252701178193E-3  -1.306553836911917E-2  
 1.930134802145239E8     1.015977561473846E-2  -8.577551692724228E-3   4.884647428989410E-1  -8.090249896049500E-1   4.868651628494263E-1  -8.324114084243774E-1  -2.640146703924984E-5  -1.315509714186192E-2  
