#  HZ   S   RI   R     50.00 
! Rohde & Schwarz ZVA24 4Ports - Version 3.12 - 1145.1110k26 SN: 100162
! Date: 2018-06-05 23:18:16
! Measurements: S11 S21 S12 S22 
! 
 1.000000000000000E8     2.072574198246002E-1   4.573190957307816E-2   3.636717285156250E3  -4.118643066406250E3  -2.153716748580337E-3   7.789915543980897E-4   3.901466131210327E-1   3.158820271492004E-1  
 1.345000000000000E8     7.290893793106079E-1   1.002644933760166E-2  -2.126174774169922E2  -6.047912597656250E3  -8.020707173272967E-5  -1.839181990362704E-3   6.030120849609375E-1  -2.709231376647949E-1  
 1.690000000000000E8     2.451921105384827E-1   3.513858318328857E-1  -4.495219726562500E3  -4.914233398437500E3  -7.928048726171255E-4   6.704452680423856E-4   1.977838575839996E-1   2.333009988069534E-1  
 2.035000000000000E8    -2.737059257924557E-3  -1.822241842746735E-1  -6.636248046875000E3  -5.766747436523438E2  -1.597272203071043E-4   3.576494054868817E-4  -5.068371072411537E-2  -1.319153048098087E-2  
 2.380000000000000E8     2.343326210975647E-1   5.738677978515625E-1  -6.159887695312500E3   3.041121582031250E3  -1.025265548378229E-3   2.001000568270683E-3  -5.559153556823731E-1   6.335537433624268E-1  
 2.725000000000000E8     1.061472743749619E-1   1.737931277602911E-3  -2.425737304687500E3   6.103168945312500E3  -1.862447825260460E-4   6.213233573362231E-4   2.167553603649139E-1  -9.272194653749466E-2  
 3.070000000000000E8    -4.184232354164124E-1  -5.471482872962952E-2   1.710443115234375E3   5.754424316406250E3   1.111622666940093E-3   2.954161573143210E-5  -3.576508536934853E-2   6.403753906488419E-2  
 3.415000000000000E8    -1.102667212486267  -1.887672662734985   4.007177490234375E3   3.575906738281250E3  -2.458445669617504E-4  -2.074853982776403E-3  -3.943576812744141E-1  -9.494928121566773E-1  
 3.760000000000000E8    -1.849246144294739   5.848965048789978E-1   7.094883300781250E3   6.343937988281250E2   2.337078563869000E-3  -2.202217729063705E-5  -1.150799274444580  -5.408232808113098E-1  
 4.105000000000000E8     1.607999801635742E-1  -1.194739118218422E-1   5.360376953125000E3  -2.986040039062500E3   1.167361551779322E-4   1.431733835488558E-5   1.206473335623741E-1   9.560021758079529E-2  
 4.450000000000000E8    -4.693555459380150E-2  -2.477190792560577E-1   2.710809082031250E3  -5.538670898437500E3   4.668793699238449E-4   2.583235618658364E-4   6.891537457704544E-2  -4.652922153472900E-1  
 4.795000000000000E8     2.272305488586426E-1   4.406113177537918E-3  -1.243970947265625E3  -6.563274414062500E3   2.794577449094504E-4  -1.299644936807454E-3   1.056951165199280  -2.770138904452324E-2  
 5.140000000000000E8     3.312992155551910E-1   1.413127183914185E-1  -4.391547851562500E3  -4.906551757812500E3   5.188185023143888E-4   4.258576082065702E-4   2.819225788116455E-1   1.608510315418243E-2  
 5.485000000000000E8     1.761580854654312E-1   7.533669471740723E-1  -6.798816894531250E3  -1.612203979492188E3  -6.109495298005641E-4  -1.050031511113048E-3   3.068926632404327E-1   5.224224328994751E-1  
 5.830000000000000E8     6.276813149452210E-1  -3.398688435554504E-1  -5.533203125000000E3   2.727671630859375E3   3.776786616072059E-4  -7.160425302572548E-4   5.018979907035828E-1  -1.540013700723648E-1  
 6.175000000000000E8    -1.609091013669968E-1  -3.092575669288635E-1  -3.190574707031250E3   5.192434570312500E3   3.637980262283236E-4  -1.448093535145745E-4  -9.418196231126785E-2  -7.527548819780350E-2  
 6.520000000000000E8     8.291878551244736E-2  -1.933276355266571E-1   2.499729919433594E2   6.272437988281250E3  -1.468855189159513E-4  -1.356807042611763E-4   1.514532417058945E-1  -7.935012690722942E-3  
 6.865000000000000E8     1.950648799538612E-2  -2.555012404918671E-1   3.693087402343750E3   4.703133300781250E3   2.875712816603482E-4  -2.518317487556487E-4   1.562183350324631E-1  -1.250361800193787E-1  
 7.210000000000000E8     1.087946593761444E-1  -2.080734670162201E-1   6.144098632812500E3   2.264763671875000E3  -1.641190319787711E-4   3.348350001033396E-4   1.452376693487167E-1  -1.674055606126785E-1  
 7.555000000000000E8     1.541219800710678E-1   2.215508073568344E-1   6.516037109375000E3  -1.771927490234375E3   6.787884049117565E-4   8.296233863802627E-5   3.111153841018677E-1   1.598705202341080E-1  
 7.900000000000000E8     5.307137370109558E-1  -1.656053662300110E-1   4.707048339843750E3  -5.743375488281250E3  -9.854760719463229E-5   8.251784602180123E-4   1.800784617662430E-1   4.379507899284363E-2  
 8.245000000000000E8    -8.897831290960312E-2   4.546211287379265E-2   6.160046386718750E2  -7.399351562500000E3   3.343775169923902E-4   7.948520214995369E-5  -1.959102898836136E-1  -1.750854216516018E-2  
 8.590000000000000E8    -1.834862381219864E-1  -4.112843871116638E-1  -3.945612060546875E3  -6.265137695312500E3   6.600024644285440E-4  -9.077443392015994E-4   4.687785804271698E-1  -7.414863109588623E-1  
 8.935000000000000E8    -4.393750801682472E-2  -1.131080985069275E-1  -6.651058105468750E3  -3.264029052734375E3   3.033198299817741E-4  -1.005494559649378E-4  -2.016108483076096E-1   1.512734778225422E-2  
 9.280000000000000E8     3.782835975289345E-2  -2.123511731624603E-1  -6.981555175781250E3   1.141754882812500E3  -2.577737905085087E-4  -1.223355357069522E-4  -1.009299457073212E-1  -1.171548813581467E-1  
 9.625000000000000E8    -5.882742628455162E-2  -2.591627240180969E-1  -5.013486816406250E3   4.934416503906250E3   1.384867064189166E-4  -1.360368041787297E-4   3.980560973286629E-2  -5.906847119331360E-2  
 9.970000000000000E8    -1.982505172491074E-1  -3.137411475181580E-1  -1.447702148437500E3   7.034002929687500E3   2.122967998730019E-5   3.447890921961516E-4   2.889451012015343E-2  -2.036468684673309E-1  
 1.031500000000000E9     2.362258434295654E-1  -1.463277488946915E-1   3.135056396484375E3   6.206857421875000E3   4.033501900266856E-4   6.570540426764637E-5   2.735557258129120E-1   1.667772233486176E-2  
 1.066000000000000E9     1.409095674753189E-1  -1.377011984586716E-1   6.012479980468750E3   3.750813476562500E3  -3.715624043252319E-4   1.460985367884859E-4   2.269613295793533E-1   5.875584483146668E-2  
 1.100500000000000E9    -9.245651215314865E-2  -1.178013905882835E-1   6.742895019531250E3  -1.478092498779297E2  -3.430780488997698E-4   1.152852273662575E-4  -5.218232795596123E-2  -4.964315518736839E-2  
 1.135000000000000E9    -9.289288520812988E-2  -7.477112114429474E-2   4.761376464843750E3  -4.072709716796875E3  -8.958722173701972E-5   2.592121563793626E-5  -4.456746578216553E-2  -3.209115937352181E-3  
 1.169500000000000E9    -2.374452501535416E-1  -1.149061471223831E-1   1.512927612304688E3  -6.861332031250000E3   2.479424001649022E-4   1.269055792363361E-4  -1.388515532016754E-1  -6.401673704385757E-2  
 1.204000000000000E9     5.605814978480339E-2  -3.819148242473602E-1  -2.023047729492188E3  -7.189442871093750E3   2.485528966644779E-6  -5.069577600806952E-4   9.494047611951828E-2  -3.077114224433899E-1  
 1.238500000000000E9     1.529678404331207E-1  -8.724637329578400E-2  -6.138328613281250E3  -4.605222656250000E3  -4.223402647767216E-4   4.233507497701794E-4   1.705636382102966E-1  -1.343026012182236E-1  
 1.273000000000000E9    -4.876115918159485E-2  -1.176699846982956E-1  -7.576724121093750E3  -5.364850463867188E2   1.619048562133685E-4  -2.594013640191406E-4  -1.473582349717617E-2  -2.794854342937470E-2  
 1.307500000000000E9    -1.042904108762741E-1  -5.795798823237419E-2  -6.576459960937500E3   3.911376464843750E3  -3.941472459700890E-5   5.099176996736787E-5   1.705124229192734E-2   3.507757186889648E-2  
 1.342000000000000E9    -4.481874406337738E-1   9.744025766849518E-2  -2.929984130859375E3   7.137602539062500E3  -2.846782736014575E-4  -4.204098659101874E-4  -6.463129818439484E-2   3.863213062286377E-1  
 1.376500000000000E9    -1.323027610778809E-1   2.028471678495407E-1   1.258395385742188E3   7.515679687500000E3   3.110872639808804E-4  -9.869799396255985E-5   1.384800374507904E-1   2.534196712076664E-2  
 1.411000000000000E9    -1.815625280141830E-1  -1.927594654262066E-2   4.892618652343750E3   5.333136718750000E3  -2.083920480799861E-5  -7.818149606464431E-5   4.020913690328598E-2  -3.075690194964409E-2  
 1.445500000000000E9    -3.311778306961060E-1  -1.388002634048462E-1   7.241692382812500E3   1.521272338867188E3  -3.054460830753669E-5   3.003757447004318E-4   7.116610556840897E-2  -8.386769890785217E-2  
 1.480000000000000E9    -1.680604666471481E-1   2.101239264011383E-1   6.805659179687500E3  -2.948887451171875E3  -4.359253216534853E-4  -3.829130582744256E-5  -1.204783916473389E-1  -1.650408655405045E-1  
 1.514500000000000E9    -7.278357446193695E-2  -1.573369055986404E-1   3.814658447265625E3  -6.308108398437500E3  -2.381136873736978E-4  -1.197675665025599E-4   1.576824933290482E-1   7.141109555959702E-2  
 1.549000000000000E9    -2.412480115890503E-1  -4.841969162225723E-2  -5.286411132812500E2  -7.463610351562500E3   2.393163740634918E-4  -2.094110241159797E-4   1.620920449495316E-1  -1.721646040678024E-1  
 1.583500000000000E9    -2.758242487907410E-1  -5.878589674830437E-2  -4.952578613281250E3  -6.019449218750000E3  -2.467338927090168E-4   9.116508590523154E-5  -1.449429243803024E-2  -2.310156226158142E-1  
 1.618000000000000E9     2.095158398151398E-1   3.656510263681412E-2  -7.307461425781250E3  -2.474439941406250E3  -2.609145594760776E-4   4.878540639765561E-4   3.217410445213318E-1   3.074240684509277E-1  
 1.652500000000000E9    -9.457645565271378E-2  -1.941215805709362E-2  -7.416298339843750E3   2.855747314453125E3  -1.278145828109700E-5  -3.746272705029696E-4   1.817957907915115E-1  -2.388829179108143E-2  
 1.687000000000000E9    -1.783671826124191E-1  -7.270493358373642E-2  -4.615821289062500E3   6.689251953125000E3  -7.575672043458326E-6   4.926792462356389E-4   1.430549472570419E-1  -1.807294785976410E-1  
 1.721500000000000E9     1.021036282181740E-1   1.183457090519369E-3  -2.940270080566406E2   8.156757812500000E3   8.968821930466220E-5   3.135039878543466E-4   3.577746078372002E-2  -4.971513524651527E-2  
 1.756000000000000E9     1.828426308929920E-2   1.357706822454929E-2   4.336723632812500E3   6.976121582031250E3  -7.656464731553569E-5  -9.773243800736964E-5   9.635769575834274E-2  -5.766548588871956E-2  
 1.790500000000000E9    -5.993791669607163E-2   1.802221238613129E-1   7.566853027343750E3   3.143540771484375E3  -1.615343935554847E-4   7.880471093812957E-5  -3.544548526406288E-2   7.058912515640259E-2  
 1.825000000000000E9     1.989740412682295E-3  -9.070205502212048E-3   7.907802734375000E3  -1.435496826171875E3  -9.792562923394144E-5  -5.605227852356620E-5   7.115318905562162E-3  -1.537437289953232E-1  
 1.859500000000000E9    -4.869438707828522E-2   1.462766826152802E-1   5.433025390625000E3  -5.865521484375000E3  -1.164662025985308E-4   1.038978371070698E-4  -4.429078195244074E-3  -8.913195133209229E-2  
 1.894000000000000E9    -1.393165737390518E-1  -3.295227885246277E-2   8.405217285156250E2  -8.051809082031250E3  -3.155713784508407E-4  -3.795564407482743E-5  -1.079292148351669E-1   4.480703175067902E-2  
 1.928500000000000E9    -1.598267257213593E-1   2.555195689201355E-1  -3.797737060546875E3  -7.290490234375000E3   1.574026100570336E-6  -4.258786502759904E-4   1.889131963253021E-1   4.532596841454506E-2  
 1.963000000000000E9    -1.679475009441376E-1  -9.655652195215225E-2  -7.326665039062500E3  -3.531139160156250E3  -1.494255120633170E-4  -2.193411492044106E-4  -2.228115200996399E-1   2.971002645790577E-2  
 1.997500000000000E9    -4.393262043595314E-2   1.275557428598404E-1  -8.165409179687500E3   1.398081909179688E3  -2.468962884449866E-5  -4.973814429831691E-5  -2.703357674181461E-2  -6.749776005744934E-2  
 2.032000000000000E9    -1.940073370933533E-1  -2.026995271444321E-2  -5.806083496093750E3   5.800902832031250E3  -2.034685894614086E-4  -2.806990960380063E-5   9.110403060913086E-2   6.236222106963396E-3  
 2.066500000000000E9    -8.680710941553116E-2   2.269378453493118E-1  -1.454247558593750E3   8.112061523437500E3  -1.302380951528903E-5  -1.961379748536274E-4  -2.048907577991486E-1  -7.137321680784226E-2  
 2.101000000000000E9    -8.139185607433319E-2   1.454709917306900E-1   3.338144287109375E3   7.300865234375000E3   1.205298831337132E-4   2.083970030071214E-4  -3.137218952178955E-1   4.516287893056870E-2  
 2.135500000000000E9     9.858573321253061E-4   3.595123440027237E-2   7.060583984375000E3   4.183217773437500E3   8.095214070635848E-6  -1.677016844041646E-4  -1.712185889482498E-1  -7.722762227058411E-2  
 2.170000000000000E9    -3.966346010565758E-2   5.606272444128990E-2   8.124683593750000E3  -6.417028198242188E2   1.040626448229887E-4   1.425357004336547E-5   2.456122823059559E-2   5.352803692221642E-2  
 2.204500000000000E9    -2.087719589471817E-1   1.724362820386887E-1   6.246380371093750E3  -5.004384765625000E3  -5.832824899698608E-5   2.273784484714270E-4  -3.484470769762993E-2  -6.612730026245117E-2  
 2.239000000000000E9    -2.278775572776794E-1   9.287082403898239E-2   2.053880859375000E3  -7.484904785156250E3   4.703954618889839E-5  -2.351856965105981E-4  -1.033638492226601E-1  -9.428315609693527E-2  
 2.273500000000000E9     1.743725091218948E-1  -1.988713443279266E-1  -2.421055908203125E3  -6.925488769531250E3  -2.387028216617182E-4  -4.114639887120575E-4   3.194513916969299E-1  -1.573070883750916E-1  
 2.308000000000000E9    -2.157502062618733E-2  -5.597572028636932E-2  -6.375185058593750E3  -4.414899414062500E3   2.417637442704290E-4   2.163065983040724E-5   6.332035176455975E-3  -1.808635294437408E-1  
 2.342500000000000E9     1.336458884179592E-2   4.205958172678947E-2  -7.801447753906250E3  -1.757321319580078E2   3.328876482555643E-5  -3.612507498473860E-5  -2.907151915132999E-2  -2.201017364859581E-2  
 2.377000000000000E9     3.017207980155945E-1   3.133503496646881E-1  -6.787929199218750E3   4.354495605468750E3  -6.823975854786113E-5  -4.386377404443920E-4   2.797026634216309E-1   2.355962246656418E-1  
 2.411500000000000E9    -2.875464782118797E-2   1.509321331977844E-1  -2.755120605468750E3   7.544081054687500E3  -1.028058322845027E-4   3.369959813426249E-5  -9.793256223201752E-2   7.163178175687790E-2  
 2.446000000000000E9     1.017100811004639E-1  -1.229582801461220E-1   1.749729248046875E3   7.886655761718750E3  -1.064392708940432E-4   8.764034282648936E-5  -4.860400408506393E-2  -2.042061388492584E-1  
 2.480500000000000E9    -2.020834684371948E-1  -1.177762225270271E-1   5.481829589843750E3   5.148407226562500E3  -2.039808314293623E-4  -1.615407818462700E-4  -1.684171706438065E-1  -7.395283877849579E-2  
 2.515000000000000E9    -3.593460470438004E-2  -1.140895932912827E-1   7.477416992187500E3   1.592832641601563E3   1.898297632578760E-4   2.419110678602010E-4  -6.507233250886202E-3   1.239991164766252E-3  
 2.549500000000000E9     7.808700203895569E-2   9.064807742834091E-2   6.724201171875000E3  -3.193709716796875E3   2.450218598823994E-4  -3.582035424187779E-5  -1.969625055789948E-1   1.936168968677521E-1  
 2.584000000000000E9    -9.814652800559998E-2  -1.605308055877686E-2   3.070538818359375E3  -6.619831542968750E3  -1.739837898639962E-4  -8.876415813574567E-5  -3.003415763378143E-1   6.014444306492806E-2  
 2.618500000000000E9    -2.676220536231995E-1   1.998515278100967E-1  -1.192594299316406E2  -7.681726074218750E3   1.340736052952707E-4  -2.658937009982765E-4  -2.130561619997025E-1   3.046391010284424E-1  
 2.653000000000000E9     1.572196185588837E-1   4.094194769859314E-1  -4.182597167968750E3  -4.823888183593750E3   3.254210168961436E-4   2.009832242038101E-4   8.805906027555466E-2   1.000224277377129E-1  
 2.687500000000000E9    -3.418479561805725E-1  -3.036692738533020E-2  -6.579298339843750E3  -7.012633666992188E2   2.486998855601996E-4  -2.433333429507911E-4  -2.145979553461075E-1  -1.209081187844276E-1  
 2.722000000000000E9    -6.924623250961304E-2  -1.604038774967194E-1  -6.035431640625000E3   3.298391357421875E3  -2.706401573959738E-4   1.402849738951773E-4   2.959591150283814E-2  -2.806975841522217E-1  
 2.756500000000000E9     8.520830422639847E-2  -2.548508904874325E-2  -3.710757812500000E3   5.659469238281250E3   4.694553717854433E-5  -2.790548023767769E-4  -2.064838409423828E-1  -1.206577196717262E-1  
 2.791000000000000E9    -1.335922162979841E-2  -2.982043288648129E-2   1.315119628906250E3   6.420722167968750E3   1.006484744721092E-4  -1.071162187145092E-4  -1.483344435691834E-1   2.066754549741745E-1  
 2.825500000000000E9    -1.854791492223740E-1  -2.620858252048492E-1   4.287904296875000E3   5.112212890625000E3  -1.819477183744311E-4   2.141342265531421E-4  -2.455459088087082E-1  -4.879049211740494E-2  
 2.860000000000000E9     9.580887854099274E-2  -5.573074817657471E-1   6.040984375000000E3   1.814381469726563E3   3.188433474861085E-4  -1.976496278075501E-4   1.806233525276184E-1  -3.375093042850494E-1  
 2.894500000000000E9    -2.607901692390442E-1   5.168074965476990E-1   6.752526855468750E3  -2.924092529296875E3   4.147064755670726E-4  -1.366554643027484E-4  -5.283071398735046E-1   6.050359010696411E-1  
 2.929000000000000E9     1.420530229806900E-1  -3.609716892242432E-2   4.869028808593750E3  -5.033214355468750E3   7.514061144320294E-5   1.193542266264558E-5   2.734632976353169E-2   1.774834841489792E-1  
 2.963500000000000E9    -5.433674901723862E-2  -1.952346116304398E-1   2.009682861328125E3  -6.546565917968750E3   2.709738619159907E-4   1.258077536476776E-4  -2.149982601404190E-1  -1.355091184377670E-1  
 2.998000000000000E9     1.349345892667770E-1   1.327250152826309E-1  -2.500511962890625E3  -6.704687500000000E3   9.645370300859213E-5  -3.553473798092455E-4   1.360375732183456E-1   3.054865300655365E-1  
 3.032500000000000E9     5.143207684159279E-2  -1.540478318929672E-1  -6.014130371093750E3  -4.107300781250000E3   4.761508535011672E-5  -1.365416974294931E-4   8.188282139599323E-3  -1.075121108442545E-3  
 3.067000000000000E9     5.536406040191650E-1  -1.616816371679306E-1  -7.616171875000000E3  -2.575946044921875E2  -3.583691723179072E-4   1.647399330977351E-4   4.975428879261017E-1  -8.508401364088059E-2  
 3.101500000000000E9     3.833989799022675E-1  -9.809152036905289E-2  -5.611802734375000E3   3.708120849609375E3   1.714110840111971E-4  -2.096204698318616E-4   2.967627346515656E-1   9.547566622495651E-2  
 3.136000000000000E9    -4.132794961333275E-2  -1.065225079655647E-1  -2.171825683593750E3   6.555551269531250E3   8.868668373906985E-5   5.209179107623640E-6   7.056677341461182E-2   1.198931634426117E-1  
 3.170500000000000E9     1.577098816633225E-1   2.617064416408539E-1   9.216294555664063E2   6.882625000000000E3   4.415071452967823E-4  -9.201568173011765E-5  -1.481975167989731E-1   5.181273818016052E-1  
 3.205000000000000E9    -1.765816286206245E-2  -5.142535641789436E-2   4.464064453125000E3   4.954307617187500E3  -7.421962072839961E-5  -2.128442247339990E-5  -4.473803937435150E-2   1.504259854555130E-1  
 3.239500000000000E9    -3.595825284719467E-2   2.664924561977387E-1   6.851981445312500E3   1.271502075195313E3  -2.854636986739934E-4  -2.448401355650276E-4   3.866686522960663E-1   4.148493111133575E-1  
 3.274000000000000E9    -4.134946167469025E-1  -5.082320570945740E-1   6.407941894531250E3  -2.927109130859375E3  -4.349249938968569E-4   2.426501450827345E-4  -1.513677686452866E-1  -1.513581909239292E-2  
 3.308500000000000E9     1.331027269363403  -3.490962386131287E-1   4.507474609375000E3  -6.571480957031250E3   4.149003652855754E-4   8.569851634092629E-4   1.154866576194763   3.551895916461945E-2  
 3.343000000000000E9    -2.535906136035919E-1   8.005191385746002E-2   6.024429931640625E2  -7.010797851562500E3   1.895232126116753E-4   7.666624878766015E-5  -1.338308304548264E-1   4.241655394434929E-2  
