#  HZ   S   RI   R     50.00 
! Rohde & Schwarz ZVA24 4Ports - Version 3.12 - 1145.1110k26 SN: 100162
! Date: 2018-06-05 23:17:32
! Measurements: S11 S21 S12 S22 
! 
 1.000000000000000E8     4.138525724411011E-1  -1.404013633728027E-1   4.049513671875000E3  -3.687805908203125E3  -1.495662960223854E-3   3.138228785246611E-3   6.289519667625427E-1  -1.645423024892807E-1  
 1.345000000000000E8    -2.177223861217499E-1   4.668106511235237E-2  -1.178123168945313E3  -6.154391601562500E3   5.100993439555168E-5   9.219336789101362E-4  -3.104803264141083E-1   2.456907629966736E-1  
 1.690000000000000E8     1.179985761642456   2.243248224258423E-1  -3.878328613281250E3  -5.290965820312500E3   7.861898047849536E-4   2.279925392940640E-3   5.398432016372681E-1  -1.288208961486816E-1  
 2.035000000000000E8    -2.058765292167664E-1  -6.442912220954895E-1  -4.774835937500000E3  -1.329156860351563E3  -1.188717782497406E-3   1.609341707080603E-3  -1.771338880062103E-1  -2.184133231639862E-1  
 2.380000000000000E8     1.616193354129791E-2  -3.481646478176117E-1  -5.007387207031250E3   3.529001708984375E3   8.160838624462485E-4  -8.915885118767619E-4   3.957515656948090E-1  -1.561011075973511E-1  
 2.725000000000000E8     1.970420479774475E-1  -1.299366056919098E-1  -2.191387695312500E3   5.454597167968750E3   1.261119497939944E-3   5.480117397382855E-4  -3.354900479316711E-1  -3.397833704948425E-1  
 3.070000000000000E8     6.187574267387390E-1   8.014675229787827E-2   1.628183471679688E3   6.427878417968750E3  -8.953773649409413E-4  -4.572162288241088E-4  -9.808463975787163E-3   3.413090109825134E-1  
 3.415000000000000E8     1.318630576133728  -7.436833977699280E-1   5.146267578125000E3   3.544011230468750E3   1.402732334099710E-3  -9.782015695236623E-6   5.700320005416870E-1  -1.461092829704285E-1  
 3.760000000000000E8     8.072963356971741E-2   6.223354339599609E-1   6.581271484375000E3   8.040466308593750E-1   2.755423192866147E-4  -7.095923647284508E-4  -2.623680531978607E-1   3.282636404037476E-1  
 4.105000000000000E8     7.017750144004822E-1   2.895760834217072E-1   5.986203613281250E3  -2.256642089843750E3   9.008096531033516E-4   5.148628260940313E-4   7.145745307207108E-2   1.045938611030579  
 4.450000000000000E8     1.211992576718330E-1   1.198701560497284E-1   2.855104492187500E3  -5.994218261718750E3  -3.651056031230837E-4  -6.440833676606417E-4  -2.597365677356720E-1   6.360034346580505E-1  
 4.795000000000000E8     1.620279625058174E-2  -8.714590966701508E-2  -1.248768310546875E3  -6.406612792968750E3   3.025300247827545E-5   9.181076893582940E-5  -1.310077756643295E-1   1.699092984199524E-1  
 5.140000000000000E8    -1.931643933057785E-1   2.178470641374588E-1  -4.522496093750000E3  -4.583718261718750E3  -4.147482977714390E-4   6.344893481582403E-4   1.334197074174881E-1   3.347816169261932E-1  
 5.485000000000000E8    -3.807593584060669E-1  -1.376610100269318E-1  -6.362151367187500E3  -1.173115234375000E3   5.702226771973074E-4  -2.212521358160302E-4  -1.908283978700638E-1   1.946813464164734E-1  
 5.830000000000000E8     9.328550100326538E-1   2.859190106391907E-1  -5.695276367187500E3   3.052501464843750E3   1.182385487481952E-3  -3.589392872527242E-4   5.987649559974670E-1   2.179138362407684E-1  
 6.175000000000000E8    -2.218216657638550E-1  -1.829061955213547E-1  -3.425127685546875E3   5.368569824218750E3   2.645262284204364E-4  -3.131940902676433E-4  -9.047456830739975E-2  -6.889063119888306E-2  
 6.520000000000000E8    -9.178760647773743E-2   1.157548427581787E-1   2.463625183105469E2   6.249455566406250E3   5.796603509224951E-4   2.462502743583173E-4  -1.606239080429077E-1   1.385995149612427E-1  
 6.865000000000000E8     9.241902083158493E-2  -1.608698628842831E-3   3.599789794921875E3   4.819106445312500E3  -3.490402377792634E-5   6.166250095702708E-4   1.150713190436363E-1   2.744395434856415E-1  
 7.210000000000000E8     2.680214345455170E-1  -2.918310761451721E-1   6.038837890625000E3   2.343818359375000E3  -3.564204380381852E-4   6.480481242761016E-4   3.045451343059540E-1  -3.555705845355988E-1  
 7.555000000000000E8     1.703108549118042E-1  -1.321000307798386E-1   6.785252441406250E3  -1.955737426757813E3   1.689341152086854E-4  -2.359803911531344E-4   1.115160584449768E-1   9.680731454864144E-5  
 7.900000000000000E8    -5.049318075180054E-3  -3.452502787113190E-1   4.421897460937500E3  -5.527617675781250E3   3.315719077363610E-4   9.596592281013727E-5   1.350128352642059E-1  -1.168331652879715E-1  
 8.245000000000000E8    -8.787927031517029E-2  -1.791379600763321E-1   4.672228698730469E2  -7.375320312500000E3  -7.247261237353087E-5   1.536813069833443E-4  -2.216411940753460E-2  -1.286787837743759E-1  
 8.590000000000000E8    -1.903191953897476E-1  -1.767869293689728E-1  -3.844179443359375E3  -6.391217285156250E3  -8.368545968551189E-5  -5.331118591129780E-4  -4.768214747309685E-2  -4.199406206607819E-1  
 8.935000000000000E8    -5.338811874389648E-2  -1.145429760217667E-1  -6.807528808593750E3  -3.056058837890625E3   2.749318373389542E-4  -4.011108831036836E-4  -2.081581950187683E-1   2.747998535633087E-1  
 9.280000000000000E8    -3.354715704917908E-1  -3.095413446426392E-1  -7.465292480468750E3   1.122511596679688E3  -1.700079446891323E-4   7.702567381784320E-4  -1.909605115652084E-1   4.204132258892059E-1  
 9.625000000000000E8    -5.617934837937355E-2  -2.778950333595276E-1  -5.237767089843750E3   4.817557128906250E3   1.220929407281801E-4  -1.757305581122637E-4   8.194708824157715E-2  -8.110098540782929E-2  
 9.970000000000000E8     8.594571799039841E-2  -2.832337319850922E-1  -1.330010498046875E3   6.705325683593750E3  -2.674550050869584E-4   1.135121419792995E-4   6.329789757728577E-2  -6.109679862856865E-2  
 1.031500000000000E9    -9.756911545991898E-2  -2.709017880260944E-2   2.876114501953125E3   6.390417968750000E3  -9.187448449665681E-5   6.900689186295494E-5  -1.209138631820679E-1  -4.380486905574799E-3  
 1.066000000000000E9    -1.617433279752731E-1  -8.670216798782349E-2   6.351750976562500E3   3.706436767578125E3   1.597302907612175E-4  -4.629744944395497E-5  -1.025143414735794E-1   6.108515430241823E-3  
 1.100500000000000E9    -1.636452674865723E-1  -9.702190756797791E-2   6.748855957031250E3  -3.041905212402344E2  -2.776993787847459E-4   4.400655743665993E-4  -2.248035520315170E-1  -2.885952778160572E-2  
 1.135000000000000E9    -1.288594305515289E-1   1.279876008629799E-2   4.769315917968750E3  -4.079607421875000E3  -4.654837830457836E-4   2.230498357675970E-4  -8.151041716337204E-2   1.600684970617294E-2  
 1.169500000000000E9    -1.390258222818375E-1  -1.010867878794670E-1   1.577919555664063E3  -6.957270996093750E3   8.656844147481024E-5   5.273261558613740E-5  -9.659344702959061E-2   2.626388892531395E-2  
 1.204000000000000E9    -6.223729625344276E-2  -1.743788123130798E-1  -2.213689941406250E3  -7.081781738281250E3  -3.615394234657288E-5  -1.369247329421341E-4   3.709407150745392E-2  -1.480499207973480E-1  
 1.238500000000000E9    -1.327176094055176E-1  -1.448911875486374E-1  -6.127639648437500E3  -4.567134277343750E3   1.777254801709205E-4   1.072956947609782E-4  -5.768426507711411E-2  -5.809094756841660E-2  
 1.273000000000000E9    -1.841130405664444E-1  -3.630927577614784E-2  -7.638451171875000E3  -4.898535156250000E2  -3.040160227101296E-4   1.451671414542943E-4   3.706798702478409E-2   6.624945998191834E-2  
 1.307500000000000E9    -1.915580630302429E-1  -7.855213247239590E-3  -6.745526367187500E3   3.978252929687500E3   2.546353207435459E-4   4.006801173090935E-4  -1.524248160421848E-2   2.401677519083023E-1  
 1.342000000000000E9    -4.087403789162636E-2   3.851405577734113E-3  -3.147643310546875E3   7.010465332031250E3  -5.164406684343703E-5   1.016997484839521E-4   9.800659865140915E-2  -3.012013062834740E-2  
 1.376500000000000E9    -4.828095063567162E-2   1.668784916400909E-1   1.268918090820313E3   7.672521484375000E3   2.127718034898862E-4  -1.783802435966209E-4   2.003770470619202E-1   1.419629901647568E-2  
 1.411000000000000E9    -1.739615499973297E-1   1.642624288797379E-1   5.063181640625000E3   5.522690429687500E3  -2.567242772784084E-4  -1.336179411737248E-5  -1.456609927117825E-3   6.266240775585175E-2  
 1.445500000000000E9    -4.088384211063385E-1  -3.617444634437561E-2   7.401758300781250E3   1.379665527343750E3   1.178103048005141E-4   3.418803971726447E-4   4.077553749084473E-2  -1.275779902935028E-1  
 1.480000000000000E9     4.306965693831444E-2   6.994058191776276E-2   7.061015625000000E3  -2.792781738281250E3  -7.944364915601909E-5   3.403010778129101E-4  -1.065874919295311E-1   8.351004123687744E-2  
 1.514500000000000E9    -2.804910540580750E-1  -7.116205245256424E-2   3.955280029296875E3  -6.554786132812500E3  -1.931959413923323E-4   2.534897939767689E-4   1.499124467372894E-1  -1.432648748159409E-1  
 1.549000000000000E9    -5.575818940997124E-2  -7.581198215484619E-2  -3.288038330078125E2  -7.504562988281250E3   1.259671553270891E-4   1.673142396612093E-4   1.613181233406067E-1   1.118233799934387E-1  
 1.583500000000000E9    -4.194551706314087E-2  -4.259663447737694E-2  -5.013052246093750E3  -5.715899902343750E3   1.855316622823011E-5  -1.203718857141212E-4   1.205502673983574E-1   2.179788611829281E-2  
 1.618000000000000E9    -6.799697130918503E-2   4.595946520566940E-2  -7.355733398437500E3  -2.102218017578125E3  -6.206535181263462E-5   3.471089075901546E-5   6.301432847976685E-2   4.221139475703239E-2  
 1.652500000000000E9    -8.118937909603119E-2  -6.729997694492340E-3  -7.446048828125000E3   2.760721435546875E3   5.938881076872349E-5  -2.453809138387442E-4   1.541801989078522E-1  -2.659768797457218E-2  
 1.687000000000000E9    -8.558768779039383E-2   5.420329794287682E-2  -4.747985839843750E3   6.737150878906250E3  -1.055064694810426E-5  -7.157371874200180E-5   2.602928318083286E-2  -2.103398926556110E-2  
 1.721500000000000E9    -9.037904441356659E-2  -1.550414599478245E-2  -1.972266693115234E2   8.185896484375000E3   8.837204222800210E-5  -2.536324609536678E-5  -2.823460381478071E-3  -1.053074896335602E-1  
 1.756000000000000E9    -1.686961352825165E-1  -2.872672975063324E-1   4.782643066406250E3   7.115687011718750E3  -3.046328783966601E-4   2.110110217472538E-4   2.312107011675835E-2  -3.268596827983856E-1  
 1.790500000000000E9    -4.289453849196434E-2   1.419719606637955E-1   7.617020996093750E3   3.142177490234375E3  -8.880010136635974E-5   8.300662739202380E-5   3.827130421996117E-2   3.841884806752205E-2  
 1.825000000000000E9    -1.449862271547318E-1   3.623744845390320E-1   7.747024414062500E3  -1.587331909179688E3   3.512405091896653E-4  -4.972774331690744E-5   1.112596131861210E-3   2.157815843820572E-1  
 1.859500000000000E9    -1.146882027387619E-1   2.980051562190056E-2   5.500841308593750E3  -5.786158203125000E3  -8.634024197817780E-7  -9.040917939273641E-5   1.998324878513813E-2  -4.083893075585365E-2  
 1.894000000000000E9     1.175386384129524E-1   1.699238568544388E-1   1.014551940917969E3  -8.056905273437500E3   5.349331768229604E-4  -9.667418635217473E-5   9.277383983135223E-2  -2.793909311294556E-1  
 1.928500000000000E9    -1.278735548257828E-1   1.108948215842247E-1  -3.800877441406250E3  -7.224793945312500E3   8.808563870843500E-5  -1.480047649238259E-4  -1.134672318585217E-3   5.417100340127945E-2  
 1.963000000000000E9    -3.627736866474152E-1   2.385597676038742E-1  -7.279702636718750E3  -3.201337402343750E3  -3.603697987273336E-4   2.182288153562695E-4   1.097447723150253E-1   3.128992915153503E-1  
 1.997500000000000E9    -5.037223547697067E-2   2.017625421285629E-1  -8.072049316406250E3   1.278542236328125E3  -3.162155189784244E-5  -1.102384849218652E-4  -3.062088973820210E-2   1.693488331511617E-3  
 2.032000000000000E9    -3.461341857910156E-1   4.498911648988724E-2  -5.819861328125000E3   5.883500976562500E3  -3.417214611545205E-4   1.083643583115190E-4   9.987467527389526E-2  -1.793099492788315E-1  
 2.066500000000000E9     1.057742834091187E-1  -1.245380118489265E-1  -1.684890747070313E3   7.836836425781250E3  -5.312276334734634E-5   3.082835173700005E-4   1.909722685813904E-1   1.148156896233559E-1  
 2.101000000000000E9     2.375227399170399E-2   1.091160327196121E-1   3.332462890625000E3   7.596932128906250E3   1.243876904482022E-4  -9.193341975333169E-5   2.533700875937939E-2   1.812074929475784E-1  
 2.135500000000000E9    -2.494268678128719E-2   1.783781498670578E-1   7.145946289062500E3   4.301360839843750E3   1.734498218866065E-4   3.809498448390514E-4   4.334110915660858E-1  -9.525343775749207E-2  
 2.170000000000000E9     2.075677514076233E-1  -1.323576718568802E-1   8.265177734375000E3  -2.762280578613281E2  -8.438103395747021E-5   5.939589464105666E-4  -4.919959306716919E-1  -8.112016320228577E-2  
 2.204500000000000E9     3.131293654441834E-1  -1.567266136407852E-1   6.189291992187500E3  -4.941125000000000E3   2.029224015132058E-5  -3.968658274970949E-4  -8.282781392335892E-2  -1.905131712555885E-2  
 2.239000000000000E9    -2.470992654561997E-1   2.741309404373169E-1   1.962680786132813E3  -7.527003417968750E3  -1.077004417311400E-4  -3.248663560952991E-4  -2.313825041055679E-1  -6.905800849199295E-2  
 2.273500000000000E9     8.038256317377091E-2   4.453941062092781E-2  -2.487289306640625E3  -7.158565429687500E3   8.564979907532688E-6  -1.292178203584626E-4   1.091953441500664E-1  -7.315948605537415E-2  
 2.308000000000000E9    -1.375632011331618E-3   2.723436057567596E-2  -6.384509765625000E3  -4.295093261718750E3   7.391783583443612E-5   3.340246394145652E-6  -8.680110424757004E-2  -1.031914427876473E-1  
 2.342500000000000E9     5.489997565746307E-2   4.629338532686234E-2  -7.724125000000000E3  -2.535167236328125E2   1.671921781962737E-4   1.042794829118066E-4  -1.281904522329569E-2   2.208622358739376E-2  
 2.377000000000000E9     2.428508251905441E-1   1.313041001558304E-1  -6.710494140625000E3   4.400784667968750E3  -1.274135574931279E-4  -2.166914055123925E-4   2.054593563079834E-1   1.092103347182274E-1  
 2.411500000000000E9    -1.303639858961105E-1   4.656131938099861E-2  -2.993804931640625E3   7.457335449218750E3  -1.342036703135818E-4  -9.910981316352263E-5  -2.683004140853882E-1  -8.958622813224793E-3  
 2.446000000000000E9     1.920062582939863E-3   6.155547685921192E-3   1.800407958984375E3   7.586839355468750E3   1.143351983046159E-5   3.760776962735690E-5  -1.622700691223145E-1  -1.997876167297363E-2  
 2.480500000000000E9     3.425101637840271E-1  -1.573299467563629E-1   5.713862304687500E3   5.073570800781250E3   2.864043053705245E-4  -1.765962661011145E-4  -4.607834853231907E-4  -1.848934292793274E-1  
 2.515000000000000E9     6.450983136892319E-2   2.062322497367859E-1   7.669289550781250E3   1.571523315429688E3  -1.086212287191302E-4  -2.746621321421117E-4  -1.539378613233566E-1  -1.334555298089981E-1  
 2.549500000000000E9     5.417229980230331E-2   1.521086320281029E-2   6.759938476562500E3  -3.130434814453125E3  -1.005882077151910E-4  -1.029722989187576E-4   7.096283882856369E-2   6.091636139899492E-3  
 2.584000000000000E9     1.855717450380325E-1  -2.511297352612019E-2   3.379078369140625E3  -6.901073242187500E3   1.799279561964795E-4  -6.027487688697875E-5   2.912699617445469E-2  -2.075801491737366E-1  
 2.618500000000000E9     2.902677953243256E-1   1.177373751997948E-1  -7.393400878906250E2  -7.432347167968750E3  -1.976077619474381E-4   4.721273944596760E-5   3.147446364164352E-2  -1.323807686567307E-1  
 2.653000000000000E9     6.488201767206192E-2   1.780092865228653E-1  -4.284115234375000E3  -4.922325195312500E3   1.207975801662542E-4   9.835595847107470E-5  -4.268459603190422E-2   6.609099358320236E-2  
 2.687500000000000E9     7.969032973051071E-2   5.301125049591065E-1  -6.196842773437500E3  -9.628319702148438E2  -3.718039952218533E-4  -2.595604746602476E-4  -2.508753538131714E-1   2.654584050178528E-1  
 2.722000000000000E9     3.597952798008919E-2   1.650214493274689E-1  -6.380190917968750E3   3.074884033203125E3   1.957791391760111E-4   4.168375744484365E-5  -2.747146487236023E-1   2.339308559894562E-1  
 2.756500000000000E9     4.638062790036202E-2   4.182265326380730E-2  -3.773950439453125E3   5.797390136718750E3   3.722836117958650E-5   1.712188532110304E-4   1.039232779294252E-2   1.879128962755203E-1  
 2.791000000000000E9    -2.471621520817280E-2  -1.368974894285202E-1   1.161869506835938E3   6.574303710937500E3   2.747943508438766E-4  -5.176488048164174E-5  -2.059246152639389E-1   1.535239368677139E-1  
 2.825500000000000E9     4.520045518875122E-1  -4.041529446840286E-2   4.076824462890625E3   5.547811523437500E3  -6.439678691094741E-5  -3.074276319239289E-4   1.237758696079254E-1   9.903479367494583E-2  
 2.860000000000000E9    -1.779146641492844E-1   6.833027582615614E-3   6.147470703125000E3   2.671848632812500E3  -9.528506052447483E-5  -1.237431861227378E-4  -2.340356111526489E-1  -3.962837159633637E-2  
 2.894500000000000E9    -2.641077935695648E-1   1.869664788246155E-1   7.023782714843750E3  -2.421654052734375E3   2.666833461262286E-4   4.015691229142249E-5  -4.711233079433441E-1   2.630249261856079E-1  
 2.929000000000000E9     3.464105129241943E-1  -9.203728288412094E-2   5.060431152343750E3  -5.234550292968750E3   2.504518488422036E-4   3.797053796006367E-5   3.325433433055878E-1   1.297247707843781E-1  
 2.963500000000000E9    -7.037733495235443E-2   1.313205510377884E-1   2.290941162109375E3  -6.900400878906250E3   2.483965363353491E-5  -2.613013202790171E-4  -1.737805902957916E-1   3.639507591724396E-1  
 2.998000000000000E9     6.478409469127655E-2  -7.525557279586792E-2  -2.436221191406250E3  -6.599953125000000E3  -8.922475535655394E-5   3.065006239921786E-5   8.874003775417805E-3   1.208111420273781E-1  
 3.032500000000000E9    -2.453568577766419E-1   8.841837756335735E-3  -6.296758789062500E3  -3.894544921875000E3  -3.130350378341973E-4  -2.148489147657529E-5  -2.475420087575913E-1   3.297597169876099E-1  
 3.067000000000000E9     4.093795716762543E-1   2.727505862712860E-1  -7.404551269531250E3  -7.852250976562500E2  -3.208546550013125E-4  -1.757876743795350E-4   4.244656562805176E-1   3.413211703300476E-1  
 3.101500000000000E9    -3.617706894874573E-1  -3.309217095375061E-2  -6.115655761718750E3   3.424744873046875E3  -2.226761280326173E-4   2.001695684157312E-4  -1.791665703058243E-1   1.522724926471710E-1  
 3.136000000000000E9    -1.377860456705093E-1  -1.014794334769249E-1  -2.039866943359375E3   6.764205566406250E3   1.254602102562785E-4  -6.542458868352696E-5   4.140467569231987E-2   1.627679467201233E-1  
 3.170500000000000E9    -1.036097779870033E-1   1.672019064426422E-1   1.145314941406250E3   6.586994140625000E3   2.339422353543341E-4   2.093817893182859E-4  -2.476969957351685E-1   2.055076956748962E-1  
 3.205000000000000E9    -9.924726933240891E-2  -7.851535081863403E-2   4.223984863281250E3   5.041423339843750E3  -2.264652866870165E-4  -1.380614266963676E-4  -2.564707994461060E-1  -2.833273028954864E-3  
 3.239500000000000E9    -3.480728343129158E-2   5.581187829375267E-2   6.735886230468750E3   1.305907226562500E3  -7.653509965166450E-5  -1.294410758418962E-4   1.870171576738358E-1   2.670350968837738E-1  
 3.274000000000000E9    -6.476620435714722E-1  -1.129140034317970E-1   5.996014648437500E3  -2.893226074218750E3  -1.647582830628380E-4   4.999962402507663E-4  -1.940127909183502E-1   3.435201346874237E-1  
 3.308500000000000E9     7.404506206512451E-1   5.401893332600594E-2   4.791351562500000E3  -5.751694335937500E3   5.565828541875817E-5   5.210136296227574E-4   6.242024302482605E-1   2.973818480968475E-1  
 3.343000000000000E9    -5.911963582038879E-1   1.228712871670723E-2   1.192837890625000E3  -7.124830566406250E3   2.933671057689935E-4   2.978293632622808E-4  -4.587127566337585E-1  -2.257535606622696E-1  
