#  HZ   S   RI   R     50.00 
! Rohde & Schwarz ZVA24 4Ports - Version 3.12 - 1145.1110k26 SN: 100162
! Date: 2018-05-29 22:46:56
! Measurements: S11 S21 S12 S22 
! 
 1.000000000000000E8     4.738686561584473   6.672985553741455E-1   2.137354248046875E3   4.320960449218750E3   2.408031560480595E-2   2.124807983636856E-2   5.718618869781494   3.411822795867920  
 1.010001449485433E8     1.523666024208069   1.627107143402100  -2.275353515625000E3   2.005575561523438E3   2.958534099161625E-2   8.572249673306942E-3   1.553145647048950   4.669489860534668  
 1.020002898970865E8     5.948306322097778E-1  -2.027974605560303  -2.245876708984375E3  -2.839724731445313E1  -2.664165385067463E-2  -1.182076893746853E-2   2.259136915206909  -3.579413414001465  
 1.030004348456298E8     1.002478241920471   5.544282436370850   7.954870605468750E3   7.169080078125000E3  -1.203969214111567E-2   2.274896018207073E-2   3.553004264831543   8.838079452514648  
 1.040005797941731E8     4.827186584472656  -2.608169317245483E-1  -1.508792724609375E2   3.154194824218750E3   5.235157161951065E-2   1.588786952197552E-3   7.284798622131348   1.123904466629028  
 1.050007247427163E8     4.042483329772949   1.249957084655762  -1.162536865234375E3   2.219415039062500E3   5.281046405434609E-2   3.785155713558197E-3   5.010076522827148   3.314213037490845  
 1.060008696912596E8     3.727460801601410E-1  -1.183712124824524   8.934729003906250E1   1.738099121093750E3   1.465744711458683E-2  -1.322843320667744E-2   1.716989755630493  -2.482400655746460  
 1.070010146398029E8    -1.474894165992737  -1.027928233146668  -2.819889892578125E3   1.813569946289063E2  -2.465100213885307E-2   5.716703832149506E-3  -9.336757063865662E-1  -2.505472421646118  
 1.080011595883461E8     2.121282815933228E-1   4.997832298278809  -4.166876953125000E3   1.640485473632813E3   3.382394835352898E-2   3.207772597670555E-2  -2.681221008300781   7.818517208099365  
 1.090013045368894E8    -2.915012121200562  -3.633869171142578  -3.165723144531250E3   1.919221679687500E3  -3.053452819585800E-2  -1.909810118377209E-2  -3.717641353607178  -4.961874008178711  
 1.100014494854327E8     7.696590423583984E-1  -6.415113210678101E-1  -1.819061401367188E3   2.349558105468750E3   1.134155876934528E-2  -7.153518032282591E-3   2.391219377517700   9.603092074394226E-2  
 1.110015944339759E8     4.088082611560822E-1   1.813444495201111  -1.137556915283203E2   2.158328369140625E3  -4.187704995274544E-3   3.005343303084374E-2   1.321534752845764   1.709883332252502  
 1.120017393825192E8    -6.152690649032593E-1  -1.029334813356400E-1  -2.019997924804688E3   7.042445068359375E2  -9.381394833326340E-3   4.272408783435822E-3  -5.747776031494141E-1  -8.491323590278626E-1  
 1.130018843310625E8     1.096439266204834E1   1.748632049560547E1   1.660814453125000E4  -1.662312890625000E4  -4.263857379555702E-2  -1.371436659246683E-2   1.507368850708008E1   2.876117706298828E1  
 1.140020292796058E8     1.017558336257935   3.632463455200195  -2.758854248046875E3   1.056515625000000E3   2.447316981852055E-2   2.879246883094311E-2   3.226101398468018E-1   5.804756641387940  
 1.150021742281490E8     4.613437652587891   3.793342113494873  -3.358779296875000E2   3.544195556640625E3   2.256715297698975E-2   3.929213061928749E-2   6.513285636901856   5.602616786956787  
 1.160023191766923E8     1.215344429016113  -1.666043400764465  -1.550618286132813E3   2.018442260742188E3   1.860965229570866E-2  -1.320386677980423E-2   1.389628410339356  -3.309228658676148  
 1.170024641252355E8     1.148703813552856   6.841180324554443E-1   3.862866699218750E3   5.658488769531250E2  -4.735061433166266E-3   4.805690143257380E-3   6.074872016906738E-1   2.341331243515015  
 1.180026090737788E8     3.045720458030701E-1  -3.792355954647064E-1   2.258812713623047E2   2.285503906250000E3   3.883610945194960E-3   9.019435383379459E-4   8.513777852058411E-1   8.223922252655029E-1  
 1.190027540223221E8    -2.269899845123291E-1   6.101734161376953  -2.823791259765625E3   1.842400512695313E3   1.183461863547564E-2   4.807038977742195E-2   7.779374122619629E-1   9.346214294433594  
 1.200028989708653E8    -1.537113308906555   2.796099424362183  -5.073848144531250E3   9.135262451171875E2  -1.893794862553477E-3   9.760235436260700E-3  -5.036453604698181E-1   1.658012509346008  
 1.210030439194086E8    -1.830766677856445  -2.371279895305634E-1   1.008779052734375E3   4.038412597656250E3  -5.044851917773485E-3  -1.268624234944582E-2  -1.750328660011292   9.204261302947998E-1  
 1.220031888679519E8     1.668005824089050  -8.710553050041199E-1   7.736291503906250E2   4.612909179687500E3   5.883077159523964E-3   9.166910313069820E-3   4.200222015380859  -1.918427586555481  
 1.230033338164952E8     7.909722924232483E-1  -1.641918063163757   1.184991455078125E2   4.117411621093750E3   1.170247886329889E-2   3.540856996551156E-3   1.406453251838684E-1  -2.233490943908691  
 1.240034787650384E8     4.571826457977295   3.500569820404053  -4.017491455078125E2   2.572861572265625E3   9.931338019669056E-3   3.297546878457069E-2   7.576919078826904   2.223146438598633  
 1.250036237135817E8     4.223203182220459   5.947223186492920   1.217307006835938E3   3.859240234375000E3  -1.416313182562590E-2   2.944554015994072E-2   5.026215553283691   5.848912715911865  
 1.260037686621250E8    -1.976452350616455   3.926949501037598   1.868729614257813E3   2.235353271484375E3  -3.082584403455257E-2  -1.812801137566567E-2  -6.720447540283203E-2   4.985143661499023  
 1.270039136106682E8    -2.137713193893433   5.887647271156311E-1   6.117819824218750E2   7.931019531250000E3  -6.910389289259911E-3  -2.159996191039681E-3  -1.263086915016174   3.722692966461182  
 1.280040585592115E8     1.269565820693970E-1   5.158263206481934  -9.241323242187500E2   4.841272460937500E3  -1.869357004761696E-2   1.267191953957081E-2   4.567834138870239E-1   6.471601963043213  
 1.290042035077547E8     3.960446417331696E-1  -1.959907561540604E-1   1.418395874023438E3   1.975756347656250E3  -1.918955240398645E-3   2.871171804144979E-3   8.105273246765137E-1  -6.930257081985474E-1  
 1.300043484562980E8    -1.763185739517212   1.731956481933594   1.591931884765625E3   2.510324462890625E3  -1.021740585565567E-2  -1.634147576987743E-2  -1.193107128143311   3.696370601654053  
 1.310044934048413E8    -2.970067501068115   2.231812953948975   5.677219726562500E3  -1.135537475585938E3   8.916890248656273E-3  -6.299228407442570E-3  -2.184674978256226   1.615630507469177  
 1.320046383533846E8     5.537020206451416   1.766019105911255   5.895643310546875E2   3.058356933593750E3  -8.451249450445175E-3   2.117996476590633E-2   7.138010025024414  -9.096802473068237E-1  
 1.330047833019278E8     3.377901077270508   2.609449148178101  -1.595685546875000E3   2.637065429687500E3  -4.680603160522878E-4   1.718386076390743E-2   4.762575149536133   1.264807820320129  
 1.340049282504711E8    -4.570569038391113  -6.998705863952637E-1   2.316569580078125E3  -1.803925195312500E4  -6.290275137871504E-3   5.207456182688475E-3  -6.236543178558350  -3.830508232116699  
 1.350050731990144E8     2.837769269943237  -1.133177757263184   3.032460693359375E3   6.201121093750000E3   1.529463566839695E-3   9.572847746312618E-3   1.320136547088623  -5.626298904418945  
 1.360052181475576E8    -1.086244702339172   6.461645364761353E-1  -1.357958618164063E3   2.021048217773438E3  -9.926646016538143E-3  -8.965267799794674E-3  -2.603137969970703   1.385295271873474  
 1.370053630961009E8    -5.814356803894043E-1   2.705992937088013  -1.391526245117188E3   2.491012207031250E3  -1.675928756594658E-2   2.697592368349433E-3   2.394240796566010E-1   3.423022031784058  
 1.380055080446442E8     3.859379291534424E-1   1.116850137710571   2.575012939453125E3  -9.396115112304688E1  -3.233740571886301E-4  -3.727863077074289E-3   5.198761820793152E-1   4.637434482574463E-1  
 1.390056529931874E8     1.171215724945068E1  -6.211553573608398  -5.713281250000000E1   8.849530273437500E3  -1.553463563323021E-2   2.375485002994537E-2   7.687345504760742  -1.217986583709717E1  
 1.400057979417307E8     3.921343088150024   1.734653949737549   2.102686279296875E3   2.347939453125000E3  -1.658060401678085E-2  -5.922379205003381E-4   3.919708728790283   4.509645998477936E-1  
 1.410059428902740E8     1.240526795387268  -1.468999028205872   1.410813598632813E3   1.873618408203125E3  -5.790263414382935E-3   9.041990153491497E-3   1.044941991567612E-1  -1.743754386901856  
 1.420060878388172E8     8.690946102142334E-1  -3.219847679138184   2.421041503906250E3   3.536969482421875E3   2.955316333100200E-3   1.256793085485697E-2  -5.360057353973389E-1  -3.177585840225220  
 1.430062327873605E8     7.987150192260742  -8.006386756896973   1.909004638671875E3   6.604137695312500E3  -2.006829902529717E-2   3.034075722098351E-2   2.684669017791748  -1.269187736511231E1  
 1.440063777359037E8     2.515957832336426  -6.057164669036865E-1   4.124565429687500E3  -2.885919189453125E2  -4.982389975339174E-3  -5.020880140364170E-3   3.208011388778687   4.309122562408447E-1  
 1.450065226844470E8    -3.442890882492065  -9.619697570800781   7.795444335937500E3   3.162512695312500E3   7.176948711276054E-3   3.365958109498024E-2  -9.294271469116211  -5.073104858398438  
 1.460066676329903E8     5.717313766479492  -1.726998519897461E1   1.776191210937500E4  -1.121664453125000E4  -2.441605925559998E-2  -1.168678328394890E-2  -2.830122232437134  -1.720614242553711E1  
 1.470068125815336E8     2.599497079849243   9.335518479347229E-1   2.017799072265625E3  -6.811527099609375E2  -1.690495759248734E-3  -1.643606275320053E-2   1.708439350128174  -2.448081076145172E-1  
 1.480069575300768E8    -1.560813426971436   4.439914226531982   1.845946777343750E3  -1.613613159179688E3   2.289076894521713E-2  -3.086384385824204E-4   1.491577744483948   4.702101707458496  
 1.490071024786201E8    -4.168328046798706E-1   1.079415202140808   2.749166992187500E3  -1.102364379882813E3   5.976749118417501E-3  -2.055356599157676E-4   5.476391315460205E-1   1.478306889533997  
 1.500072474271634E8     4.981631755828857   2.842571258544922   2.234512207031250E3  -5.262220703125000E3   1.291841827332974E-2   5.145224276930094E-4   5.763726711273193   3.253884315490723E-1  
 1.510073923757066E8    -1.109126687049866   1.374563694000244   3.669217773437500E3  -1.989578857421875E3   5.416228901594877E-3   1.822999212890863E-3  -1.849939227104187E-1   2.326409578323364  
 1.520075373242499E8    -5.407505035400391   4.030388832092285  -5.122148437500000E3   3.622588378906250E3  -1.075469888746738E-2  -9.353213943541050E-3  -2.048530578613281   5.317538261413574  
 1.530076822727932E8     2.302732944488525  -3.175882339477539   6.333558593750000E3   7.463908081054688E2  -9.773589670658112E-3  -2.042393898591399E-3   3.555765748023987E-1  -3.757423877716065  
 1.540078272213364E8    -6.674044132232666E-1  -1.672246098518372  -1.488149169921875E3  -7.857663574218750E3  -3.696380648761988E-3  -3.434587037190795E-3  -2.806834697723389  -7.908640503883362E-1  
 1.550079721698797E8    -1.351100802421570E-1   3.632359504699707   2.564712646484375E3  -1.860372192382813E3   1.411638967692852E-2   3.301111515611410E-3   1.210634231567383   3.059098243713379  
 1.560081171184230E8     1.487861752510071   1.248828470706940E-1   5.522581054687500E3   2.724842285156250E3  -3.164093475788832E-3  -5.382443196140230E-4   3.134321570396423E-1  -1.468322753906250  
 1.570082620669662E8    -3.877400159835815  -2.371245384216309   4.531627929687500E3  -3.609660644531250E2   9.336508810520172E-7   1.645745523273945E-2  -4.192591190338135   2.779592275619507E-1  
 1.580084070155095E8    -9.977288246154785   1.062000370025635E1  -9.088906250000000E2   1.311015917968750E4  -2.119756303727627E-3  -5.101626738905907E-3  -1.925038337707520   1.238491058349609E1  
 1.590085519640528E8     3.562508821487427   4.924638569355011E-1   1.708050415039063E3   1.946269165039063E3  -1.483176276087761E-2  -1.605400815606117E-2   1.807549238204956  -1.607693672180176  
 1.600086969125960E8     4.280951499938965   3.390082836151123   2.474109130859375E3  -1.456752929687500E3   3.059323690831661E-2  -2.633706200867891E-3   4.400475978851318  -4.380375146865845E-2  
 1.610088418611393E8     1.668330192565918E1  -1.318623161315918E1   1.630549121093750E4  -8.909916992187500E3  -2.879991894587874E-3  -2.920576930046082E-2   2.320391893386841  -1.363362598419190E1  
 1.620089868096826E8     8.855945467948914E-1   1.128023982048035   4.014414794921875E3   3.313017272949219E1   3.305212128907442E-3  -1.476852921769023E-3   1.982208788394928E-1   1.427675932645798E-1  
 1.630091317582258E8    -8.580747604370117  -1.007209968566895E1   1.584600097656250E3  -8.187981933593750E3  -3.003898262977600E-2  -7.750370539724827E-3  -1.055376052856445E1  -2.510638952255249  
 1.640092767067691E8    -3.203580856323242  -1.071039390563965E1   8.053416503906250E3  -5.349479492187500E3  -2.697727829217911E-2   1.142136752605438E-4  -8.258294105529785  -5.820313453674316  
 1.650094216553124E8    -1.839146018028259  -4.673440933227539   3.102263671875000E3   4.209762207031250E3  -4.934443160891533E-3   1.542847324162722E-2  -3.389905691146851  -1.702322125434876  
 1.660095666038556E8     4.245550155639648  -5.114041328430176   6.085021484375000E3  -2.911731262207031E2  -1.280727330595255E-2  -1.420155540108681E-2  -1.356203317642212  -4.631047725677490  
 1.670097115523989E8     4.465239942073822E-1  -5.058247447013855E-1   2.052998535156250E3  -2.191637939453125E3   7.176165236160159E-4  -3.202302032150328E-4  -3.339468240737915E-1   6.597461700439453E-1  
 1.680098565009422E8    -1.855624318122864E-1  -5.837950229644775  -7.998125976562500E3   7.819666015625000E3   4.124743398278952E-3   7.389112841337919E-3  -3.044682979583740  -3.444037914276123  
 1.690100014494854E8    -5.742856502532959  -3.312303423881531E-1   2.220856445312500E3  -2.507053955078125E3  -1.746955513954163E-2   5.404631607234478E-3  -3.163170337677002   3.139430284500122  
 1.700101463980287E8     4.253314971923828E1  -5.229159545898438E1   1.437280761718750E4  -3.456335156250000E4   4.741163179278374E-2  -1.018315404653549E-1   1.997232437133789  -4.979732131958008E1  
 1.710102913465720E8     7.349829196929932   5.351917743682861E-1   2.859104248046875E3  -4.425706542968750E3   2.455585449934006E-2   4.208802245557308E-3   3.781188726425171  -3.041810512542725  
 1.720104362951152E8     1.985848426818848E1  -2.670691967010498   1.098541601562500E4  -1.383348828125000E4   3.043063916265965E-2   2.209628932178021E-3   1.098568630218506E1  -8.528841972351074  
 1.730105812436585E8     3.247931957244873   3.077817440032959   4.517038574218750E3   1.104359985351563E3   1.653915829956532E-2  -5.638091824948788E-4   3.525800228118897   2.101296901702881  
 1.740107261922018E8    -1.396268725395203  -3.376334309577942E-1   1.553045898437500E3  -2.964844726562500E3  -5.962437950074673E-3  -3.162217326462269E-3  -5.373809337615967E-1  -2.597124874591827E-1  
 1.750108711407450E8    -6.642827510833740   3.093636035919190E-1  -1.587926147460938E3  -5.441238281250000E3  -4.658407997339964E-3  -1.157262455672026E-2  -4.668946743011475   2.720173358917236  
 1.760110160892883E8     1.036978721618652  -9.809117913246155E-1   1.503548706054688E3  -4.024527099609375E3   4.462199285626411E-3  -6.504270713776350E-4   1.252323836088181E-1  -1.790088117122650E-1  
 1.770111610378315E8     4.117405712604523E-1   2.908896207809448   4.446600341796875E1  -3.335931396484375E3  -1.174326427280903E-2   7.637938950210810E-3   1.359571814537048   4.421045482158661E-1  
 1.780113059863749E8     2.250210762023926   2.855001449584961   1.188631103515625E3  -2.798173828125000E3  -3.836262272670865E-3   1.772315613925457E-2   1.047238945960999   1.079052329063416  
 1.790114509349181E8     1.912208318710327   1.061131954193115   2.822613281250000E3   4.124720703125000E3   4.157977178692818E-3  -5.568120162934065E-3   2.469301939010620   7.486029863357544E-1  
 1.800115958834614E8    -7.829115390777588E-1   2.062056303024292   7.231868652343750E3  -2.256292773437500E4  -6.556320004165173E-4  -4.310473450459540E-4  -5.109063386917114E-1   1.363980412483215  
 1.810117408320046E8    -5.419454097747803  -1.993892669677734E1  -8.924951171875000E3   5.594801757812500E3   1.478948071599007E-2   2.214146777987480E-2  -6.128385543823242  -8.755698204040527  
 1.820118857805479E8     3.749918341636658E-1   1.417864203453064  -1.245040649414063E3  -4.209889648437500E3  -4.622529260814190E-3   1.158991362899542E-3   2.553055584430695E-1   3.460037410259247E-1  
 1.830120307290912E8    -2.415347546339035E-1  -6.085676193237305   8.692855468750000E3   1.160156054687500E4  -4.282492678612471E-3  -4.398842342197895E-3   7.309939265251160E-1  -3.715090513229370  
 1.840121756776344E8     2.401071786880493   5.847714543342590E-1   5.123366699218750E2  -2.896561279296875E3  -9.551860857754946E-4   1.203625649213791E-2   6.570772528648377E-1   6.890059709548950E-1  
 1.850123206261777E8     3.556516766548157E-1   1.812443494796753   3.630093994140625E3  -3.991961669921875E3  -5.465143360197544E-3   3.953170031309128E-3   2.402619123458862   1.582516074180603  
 1.860124655747210E8    -9.146802872419357E-2   1.452545404434204  -8.793638916015625E2  -3.297665527343750E3  -7.105037569999695E-3  -4.482309799641371E-3  -3.852189183235169E-1   7.951405048370361E-1  
 1.870126105232642E8    -3.937574625015259E-1   3.355806767940521E-1  -4.971521484375000E3   1.933872436523438E3   1.905706245452166E-3  -1.009375788271427E-3  -6.631075739860535E-1   7.036888599395752E-2  
 1.880127554718075E8    -3.518054962158203  -3.482332527637482E-1   2.953363769531250E3  -1.293166137695313E3  -7.150451652705669E-3  -1.178715936839581E-2  -2.070641994476318   4.284532070159912E-1  
 1.890129004203508E8    -8.536393165588379   1.312231063842773   4.892440185546875E2  -2.463272705078125E3   2.625831589102745E-2  -3.983207792043686E-2  -4.629706859588623   3.630344390869141  
 1.900130453688940E8     9.600437879562378E-1  -1.490101933479309  -3.335620117187500E3  -2.695540039062500E3   8.440023520961404E-5   4.710245877504349E-3  -2.674097716808319E-1  -4.745042920112610E-1  
 1.910131903174373E8     1.663224101066589  -5.425323486328125  -3.951623291015625E3  -1.681864990234375E3  -5.146278068423271E-3   1.546115614473820E-2   5.319389104843140E-1  -2.350431919097900  
 1.920133352659806E8     1.752136993408203E1   5.256784439086914   1.186158300781250E4  -3.092499023437500E3   1.259000040590763E-2   2.924000844359398E-2   6.851791381835938   2.646008968353272  
 1.930134802145239E8    -5.056174278259277  -3.689250707626343   1.094703369140625E3  -5.150548339843750E3   1.288822758942843E-2  -6.556332577019930E-3  -2.713087797164917  -2.249274015426636  
 1.940136251630671E8    -2.496800899505615  -3.181470394134522   2.380751342773438E2  -3.348971679687500E3   1.417800690978766E-2   4.491443280130625E-3  -2.616988897323608  -1.729777336120606  
 1.950137701116104E8     9.089351296424866E-1  -8.597142100334168E-1  -3.806849121093750E3  -2.144542724609375E3  -4.578214604407549E-3   2.650863956660032E-3   2.017251729965210   2.384477257728577E-1  
 1.960139150601536E8    -2.385704040527344   2.395375490188599  -1.612244995117188E3  -2.821458740234375E3   1.394012756645680E-2  -1.336593087762594E-2  -6.288100481033325E-1   2.012865781784058  
 1.970140600086969E8    -1.269338846206665  -2.935425758361816  -1.645651123046875E3  -4.239029785156250E3   5.991195794194937E-3   8.792275562882423E-3   4.345837235450745E-2  -2.250684738159180  
 1.980142049572402E8    -4.121002674102783  -5.800970196723938E-1   2.036940063476563E3  -4.929176269531250E3   1.018905080854893E-2  -5.398225970566273E-3  -2.274003267288208  -4.248777925968170E-1  
