#  HZ   S   RI   R     50.00 
! Rohde & Schwarz ZVA24 4Ports - Version 3.12 - 1145.1110k26 SN: 100162
! Date: 2018-06-04 05:56:18
! Measurements: S11 S21 S12 S22 
! 
 1.000000000000000E8     1.337353512644768E-2   9.054864756762981E-3  -5.989193916320801E-1   7.557476162910461E-1  -6.067480444908142E-1   7.764652967453003E-1   1.212226133793593E-2   8.261186303570867E-4  
 1.010001449485433E8     1.329884584993124E-2   1.073676627129316E-2  -5.173432826995850E-1   8.103427886962891E-1  -5.290955305099487E-1   8.450531363487244E-1   1.164508145302534E-2   1.747377566061914E-3  
 1.020002898970865E8     1.266967877745628E-2   1.108082104474306E-2  -4.373140931129456E-1   8.644603490829468E-1  -4.362307190895081E-1   8.875012993812561E-1   1.246588863432407E-2  -1.699342392385006E-3  
 1.030004348456298E8     1.331706624478102E-2   8.956436067819595E-3  -3.476901948451996E-1   8.976017832756043E-1  -3.420915007591248E-1   9.264612793922424E-1   1.305568125098944E-2  -2.962104277685285E-3  
 1.040005797941731E8     1.580476015806198E-2   1.001169160008431E-2  -2.498703747987747E-1   9.332844018936157E-1  -2.507785856723785E-1   9.564068317413330E-1   1.081531308591366E-2  -3.974483348429203E-3  
 1.050007247427163E8     1.657364703714848E-2   7.916565053164959E-3  -1.528162211179733E-1   9.548317193984985E-1  -1.478446274995804E-1   9.810976386070252E-1   1.143198460340500E-2  -3.901216201484203E-3  
 1.060008696912596E8     1.583697088062763E-2   5.522233434021473E-3  -5.828233435750008E-2   9.606590867042542E-1  -4.589273780584335E-2   9.879375696182251E-1   9.520378895103931E-3  -7.384488824754953E-3  
 1.070010146398029E8     1.638794317841530E-2   4.388247150927782E-3   4.226595908403397E-2   9.618943333625794E-1   5.730489268898964E-2   9.888436794281006E-1   8.249925449490547E-3  -5.807479377835989E-3  
 1.080011595883461E8     1.654402166604996E-2   1.773690339177847E-3   1.444554179906845E-1   9.474359154701233E-1   1.612740159034729E-1   9.753615260124207E-1   7.683536037802696E-3  -6.840261165052652E-3  
 1.090013045368894E8     1.388483401387930E-2  -9.541199542582035E-4   2.347937375307083E-1   9.345272779464722E-1   2.583080232143402E-1   9.534794092178345E-1   5.027530714869499E-3  -5.483002867549658E-3  
 1.100014494854327E8     1.410699449479580E-2   3.651159058790654E-4   3.350342214107513E-1   9.006415605545044E-1   3.537076711654663E-1   9.200302958488464E-1   3.192308358848095E-3  -7.984059862792492E-3  
 1.110015944339759E8     1.121354475617409E-2  -2.851584460586309E-3   4.241942167282105E-1   8.650252223014832E-1   4.451988637447357E-1   8.774847984313965E-1   1.304458826780319E-3  -6.754720117896795E-3  
 1.120017393825192E8     7.532512303441763E-3  -3.567463951185346E-3   5.042548179626465E-1   8.224157691001892E-1   5.401592850685120E-1   8.270316720008850E-1   1.232780050486326E-3  -2.900595078244805E-3  
 1.130018843310625E8     5.531894508749247E-3  -3.889861749485135E-3   5.890796184539795E-1   7.567732334136963E-1   6.170056462287903E-1   7.687001228332520E-1  -1.678742817603052E-3  -3.474273718893528E-3  
 1.140020292796058E8     3.631966654211283E-3  -4.131835885345936E-3   6.599209308624268E-1   6.967380642890930E-1   6.932715773582459E-1   7.045568227767944E-1  -1.702328911051154E-3  -1.823226921260357E-3  
 1.150021742281490E8     3.589166095480323E-3  -1.610998646356165E-3   7.319980263710022E-1   6.217465400695801E-1   7.610539197921753E-1   6.281768679618835E-1  -2.393879229202867E-3  -1.869703875854611E-3  
 1.160023191766923E8     4.131882087676786E-5  -3.577418101485819E-4   7.938873171806335E-1   5.480397939682007E-1   8.218079805374146E-1   5.391267538070679E-1  -1.137307495810092E-3   1.227530767209828E-3  
 1.170024641252355E8    -7.776746060699225E-4   2.623175038024783E-3   8.450366258621216E-1   4.649372398853302E-1   8.774347305297852E-1   4.597010612487793E-1  -2.694620750844479E-3   8.763306541368365E-4  
 1.180026090737788E8    -2.396078081801534E-3   3.602072596549988E-3   8.885344266891480E-1   3.732397556304932E-1   9.200149774551392E-1   3.660347461700440E-1  -2.539854729548097E-3   2.959588542580605E-3  
 1.190027540223221E8    -7.368043297901750E-4   4.761194810271263E-3   9.223117232322693E-1   2.817302644252777E-1   9.471754431724548E-1   2.703981101512909E-1  -4.746012564282864E-4   2.384999068453908E-3  
 1.200028989708653E8    -9.238104394171387E-5   8.060947991907597E-3   9.434905052185059E-1   1.807805448770523E-1   9.683472514152527E-1   1.724293977022171E-1  -4.690588102675974E-4   4.020069260150194E-3  
 1.210030439194086E8     2.520507259760052E-4   7.000000216066837E-3   9.623229503631592E-1   8.792398124933243E-2   9.804438352584839E-1   7.045793533325195E-2  -4.838834574911743E-4   3.500278806313872E-3  
 1.220031888679519E8     2.881244523450732E-3   7.937840186059475E-3   9.609564542770386E-1  -1.121716666966677E-2   9.846809506416321E-1  -3.148587420582771E-2  -2.414116315776482E-4   5.009155720472336E-3  
 1.230033338164952E8     5.705751478672028E-3   8.626986294984818E-3   9.560414552688599E-1  -1.155860349535942E-1   9.724969863891602E-1  -1.327487677335739E-1  -4.803376214113087E-4   4.086643923074007E-3  
 1.240034787650384E8     4.452393855899572E-3   8.085368201136589E-3   9.396640658378601E-1  -2.092714756727219E-1   9.605441093444824E-1  -2.288822680711746E-1   4.870457341894507E-4   3.701350418850780E-3  
 1.250036237135817E8     6.352935917675495E-3   6.620947737246752E-3   9.155133366584778E-1  -3.028935790061951E-1   9.284481406211853E-1  -3.236627578735352E-1   2.967461769003421E-4   3.344524884596467E-3  
 1.260037686621250E8     9.175332263112068E-3   4.832992330193520E-3   8.754320740699768E-1  -3.953696489334106E-1   8.877561688423157E-1  -4.204943478107452E-1   3.599378978833556E-4   4.124698694795370E-3  
 1.270039136106682E8     1.017860602587462E-2   4.768982529640198E-3   8.318961858749390E-1  -4.871417284011841E-1   8.387476205825806E-1  -5.064640641212463E-1   1.785127795301378E-3   4.048387054353952E-3  
 1.280040585592115E8     1.033690664917231E-2   3.560341661795974E-3   7.777975797653198E-1  -5.704230070114136E-1   7.847668528556824E-1  -5.920001864433289E-1   1.673866412602365E-3   6.757283117622137E-3  
 1.290042035077547E8     1.146411709487438E-2   1.101623522117734E-3   7.130752801895142E-1  -6.460698246955872E-1   7.192347645759583E-1  -6.671699285507202E-1   1.281340490095317E-3   5.929142702370882E-3  
 1.300043484562980E8     1.153602637350559E-2   6.181131175253540E-5   6.425713896751404E-1  -7.189384102821350E-1   6.481432318687439E-1  -7.343564033508301E-1   3.248559776693583E-3   4.419656936079264E-3  
 1.310044934048413E8     1.033316832035780E-2  -2.491890685632825E-3   5.674934387207031E-1  -7.750349044799805E-1   5.727546215057373E-1  -7.996606230735779E-1   3.839598037302494E-3   4.122606944292784E-3  
 1.320046383533846E8     1.076998468488455E-2  -3.569653490558267E-3   4.825746119022369E-1  -8.274608254432678E-1   4.814651012420654E-1  -8.523910045623779E-1   6.167251616716385E-3   4.705593921244144E-3  
 1.330047833019278E8     9.572122246026993E-3  -2.851575613021851E-3   3.901378214359283E-1  -8.781002163887024E-1   3.910146653652191E-1  -8.965226411819458E-1   7.853723131120205E-3   3.350218292325735E-3  
 1.340049282504711E8     9.530698880553246E-3  -4.651905037462711E-3   3.060329556465149E-1  -9.135761260986328E-1   3.017165958881378E-1  -9.316643476486206E-1   8.783024735748768E-3   2.967734122648835E-3  
 1.350050731990144E8     9.505428373813629E-3  -5.383507348597050E-3   2.063502520322800E-1  -9.389715790748596E-1   2.038531303405762E-1  -9.567797183990479E-1   1.028929650783539E-2   1.155606820248067E-3  
 1.360052181475576E8     8.889647200703621E-3  -5.606376565992832E-3   1.091364771127701E-1  -9.535632133483887E-1   1.043438985943794E-1  -9.732449650764465E-1   8.707026951014996E-3   2.962801954708993E-4  
 1.370053630961009E8     6.501520983874798E-3  -7.237873040139675E-3   9.607057087123394E-3  -9.604741930961609E-1   4.412231966853142E-3  -9.768721461296082E-1   7.792606949806213E-3  -1.090188045054674E-3  
 1.380055080446442E8     5.696506239473820E-3  -6.942593492567539E-3  -9.027735143899918E-2  -9.573173522949219E-1  -9.348315745592117E-2  -9.712870121002197E-1   8.095465600490570E-3  -2.116774441674352E-3  
 1.390056529931874E8     3.618157934397459E-3  -7.438060827553272E-3  -1.846377104520798E-1  -9.437522888183594E-1  -1.960823982954025E-1  -9.562499523162842E-1   6.942699197679758E-3  -1.115718507207930E-3  
 1.400057979417307E8     3.162787761539221E-3  -7.291066925972700E-3  -2.814065515995026E-1  -9.177727699279785E-1  -2.945045232772827E-1  -9.382520914077759E-1   4.289669916033745E-3  -5.451076431199908E-4  
 1.410059428902740E8     1.684344024397433E-3  -6.432992406189442E-3  -3.748245835304260E-1  -8.851921558380127E-1  -3.855373859405518E-1  -9.048494696617127E-1   4.634116310626268E-3  -2.050123410299420E-3  
 1.420060878388172E8     6.391238421201706E-4  -5.917834118008614E-3  -4.600231647491455E-1  -8.411876559257507E-1  -4.782766997814179E-1  -8.531051874160767E-1   4.101643338799477E-3  -7.434668805217370E-5  
 1.430062327873605E8    -9.714701445773244E-4  -6.262099370360375E-3  -5.459305047988892E-1  -7.872362136840820E-1  -5.632857084274292E-1  -8.036212325096130E-1   4.188957158476114E-3  -5.127349868416786E-5  
 1.440063777359037E8    -1.525942701846361E-3  -5.637627560645342E-3  -6.232694387435913E-1  -7.263753414154053E-1  -6.390503644943237E-1  -7.385531663894653E-1   3.272584173828363E-3   3.921635288861580E-5  
 1.450065226844470E8    -3.662019502371550E-3  -5.176725331693888E-3  -6.987562179565430E-1  -6.577398777008057E-1  -7.142866849899292E-1  -6.701046228408814E-1   2.193940104916692E-3   8.495077490806580E-4  
 1.460066676329903E8    -3.615527646616101E-3  -3.819853067398071E-3  -7.609786391258240E-1  -5.837885141372681E-1  -7.797251343727112E-1  -5.971707701683044E-1   3.060081740841270E-3   1.117905252613127E-3  
 1.470068125815336E8    -3.342631738632917E-3  -2.565506845712662E-3  -8.156116604804993E-1  -5.011643767356873E-1  -8.372234106063843E-1  -5.064160227775574E-1   2.297878498211503E-3   2.493485575541854E-3  
 1.480069575300768E8    -4.914724268019199E-3  -1.623892923817039E-3  -8.627635836601257E-1  -4.162569046020508E-1  -8.823484182357788E-1  -4.206967353820801E-1   3.258851822465658E-3   3.336743218824267E-3  
 1.490071024786201E8    -3.233290743082762E-3  -2.520650625228882E-3  -8.996289372444153E-1  -3.264620304107666E-1  -9.203152060508728E-1  -3.303929567337036E-1   4.589027259498835E-3   2.831193618476391E-3  
 1.500072474271634E8    -4.951461218297482E-3  -1.650096848607063E-3  -9.287127852439880E-1  -2.284029275178909E-1  -9.500533938407898E-1  -2.321384102106094E-1   4.842142108827829E-3   3.419663058593869E-3  
 1.510073923757066E8    -3.834385424852371E-3   7.835309952497482E-5  -9.455387592315674E-1  -1.343564987182617E-1  -9.699121713638306E-1  -1.331668794155121E-1   4.664159379899502E-3   2.381511265411973E-3  
 1.520075373242499E8    -4.626236855983734E-3   5.400493391789496E-4  -9.523719549179077E-1  -3.589088842272759E-2  -9.774888157844544E-1  -3.482933714985848E-2   6.174971349537373E-3   2.264833543449640E-3  
 1.530076822727932E8    -3.236194839701057E-3   7.466376991942525E-4  -9.550259709358215E-1   6.068629026412964E-2  -9.741139411926270E-1   6.548738479614258E-2   7.131124380975962E-3   1.681220135651529E-3  
 1.540078272213364E8    -3.710862481966615E-3   1.057252171449363E-3  -9.421215057373047E-1   1.594287902116776E-1  -9.627295732498169E-1   1.674161255359650E-1   6.740811280906200E-3   6.567480741068721E-4  
 1.550079721698797E8    -1.788500347174704E-3   3.134309081360698E-4  -9.220135807991028E-1   2.563345432281494E-1  -9.406691193580627E-1   2.619075179100037E-1   7.831659168004990E-3  -1.615874498384073E-4  
 1.560081171184230E8    -9.784811409190297E-4   1.497469143941999E-3  -8.871296644210815E-1   3.471493124961853E-1  -9.062870144844055E-1   3.568511307239533E-1   8.405209518969059E-3  -6.588142714463174E-4  
 1.570082620669662E8     1.794361651263898E-6   8.347807452082634E-4  -8.513365387916565E-1   4.370387196540833E-1  -8.666639328002930E-1   4.481071531772614E-1   8.605821058154106E-3  -2.663812832906842E-3  
 1.580084070155095E8     1.278040930628777E-3  -5.317138275131583E-4  -7.963197827339172E-1   5.230553150177002E-1  -8.179875016212463E-1   5.350834131240845E-1   7.930858992040157E-3  -4.949026741087437E-3  
 1.590085519640528E8     1.293877488933504E-3  -1.333643682301045E-3  -7.379655838012695E-1   6.006206870079041E-1  -7.552081346511841E-1   6.144862771034241E-1   7.446674164384604E-3  -5.589926615357399E-3  
 1.600086969125960E8     2.966958563774824E-3  -3.697537351399660E-3  -6.753514409065247E-1   6.741430163383484E-1  -6.833546757698059E-1   6.920921802520752E-1   6.561186164617539E-3  -6.097098812460899E-3  
 1.610088418611393E8     2.732130466029048E-3  -4.131003748625517E-3  -6.018165349960327E-1   7.381975054740906E-1  -6.099795103073120E-1   7.582235932350159E-1   5.057078786194325E-3  -7.548218593001366E-3  
 1.620089868096826E8     3.782633459195495E-3  -6.308401934802532E-3  -5.266845822334290E-1   7.964761257171631E-1  -5.317467451095581E-1   8.164584040641785E-1   6.109380628913641E-3  -7.642732467502356E-3  
 1.630091317582258E8     2.272843383252621E-3  -8.663363754749298E-3  -4.396778941154480E-1   8.485265970230103E-1  -4.427920877933502E-1   8.677968978881836E-1   4.700860008597374E-3  -9.044792503118515E-3  
 1.640092767067691E8     1.597754075191915E-3  -6.996518932282925E-3  -3.501545786857605E-1   8.846837282180786E-1  -3.523226082324982E-1   9.095019102096558E-1   3.643194679170847E-3  -8.889855816960335E-3  
 1.650094216553124E8     1.768303569406271E-3  -7.635795045644045E-3  -2.610365748405457E-1   9.185370802879334E-1  -2.579560577869415E-1   9.421223998069763E-1   2.359007485210896E-3  -9.919511154294014E-3  
 1.660095666038556E8     8.842711104080081E-4  -8.127585053443909E-3  -1.596842855215073E-1   9.391285181045532E-1  -1.618745326995850E-1   9.625076651573181E-1   2.566144568845630E-3  -8.338417857885361E-3  
 1.670097115523989E8     1.298313611187041E-3  -7.672379259020090E-3  -6.569270789623261E-2   9.508622288703919E-1  -5.826487392187119E-2   9.717988967895508E-1   2.017591148614883E-3  -9.717240929603577E-3  
 1.680098565009422E8     1.868275110609829E-3  -7.660537026822567E-3   3.341966867446899E-2   9.485448598861694E-1   3.746962919831276E-2   9.743842482566834E-1   3.285835264250636E-3  -1.031842175871134E-2  
 1.690100014494854E8     1.984361326321960E-3  -8.057874627411366E-3   1.300809085369110E-1   9.429745674133301E-1   1.367980837821960E-1   9.618691205978394E-1   9.842145955190063E-4  -8.226721547544003E-3  
 1.700101463980287E8     2.669584937393665E-3  -5.897396244108677E-3   2.254231274127960E-1   9.232181906700134E-1   2.362052500247955E-1   9.409378170967102E-1   1.267983578145504E-3  -9.023441001772881E-3  
 1.710102913465720E8     2.364352811127901E-3  -4.294747952371836E-3   3.209169507026672E-1   8.959010839462280E-1   3.305830955505371E-1   9.153270721435547E-1  -6.055155245121568E-5  -8.941812440752983E-3  
 1.720104362951152E8     2.490132581442595E-3  -3.326013451442123E-3   4.134081602096558E-1   8.540426492691040E-1   4.242694377899170E-1   8.742536306381226E-1  -1.869088155217469E-3  -8.952940814197063E-3  
 1.730105812436585E8     5.124416667968035E-3  -1.167312380857766E-3   4.934882819652557E-1   8.137164115905762E-1   5.129154324531555E-1   8.238555192947388E-1  -4.025022964924574E-3  -9.189807809889317E-3  
 1.740107261922018E8     5.784679204225540E-3  -8.934203651733697E-4   5.754486918449402E-1   7.596203088760376E-1   5.956107974052429E-1   7.693085074424744E-1  -6.218899507075548E-3  -6.534534040838480E-3  
 1.750108711407450E8     5.666980054229498E-3  -3.466411726549268E-4   6.488483548164368E-1   6.927684545516968E-1   6.679423451423645E-1   7.043558955192566E-1  -5.748103372752667E-3  -3.058532718569040E-3  
 1.760110160892883E8     7.429585326462984E-3   2.955264790216461E-5   7.172743678092957E-1   6.242892742156982E-1   7.369909286499023E-1   6.306074261665344E-1  -8.508770726621151E-3  -9.758736705407500E-4  
 1.770111610378315E8     8.428261615335941E-3   3.778408281505108E-4   7.766687273979187E-1   5.482978820800781E-1   8.009539842605591E-1   5.527102947235107E-1  -7.519895210862160E-3   9.308803710155189E-4  
 1.780113059863749E8     9.214129298925400E-3  -4.651441850000992E-5   8.281857967376709E-1   4.650389850139618E-1   8.509035706520081E-1   4.674923419952393E-1  -7.776478771120310E-3   3.922818694263697E-3  
 1.790114509349181E8     8.025558665394783E-3  -1.285999664105475E-3   8.704726696014404E-1   3.741415143013001E-1   8.954991698265076E-1   3.748520314693451E-1  -5.972362123429775E-3   7.724998518824577E-3  
 1.800115958834614E8     7.736489176750183E-3  -1.484061474911869E-3   9.033992290496826E-1   2.872382998466492E-1   9.259335994720459E-1   2.807088792324066E-1  -4.844984970986843E-3   1.000867132097483E-2  
 1.810117408320046E8     6.454483605921269E-3  -1.321344985626638E-3   9.276296496391296E-1   1.907758563756943E-1   9.517068862915039E-1   1.846427172422409E-1  -1.448002061806619E-3   1.137383747845888E-2  
 1.820118857805479E8     5.723022390156984E-3  -3.759213141165674E-4   9.441833496093750E-1   9.436633437871933E-2   9.647960662841797E-1   8.735370635986328E-2   3.042505122721195E-3   1.258624903857708E-2  
 1.830120307290912E8     5.817215889692307E-3   1.608109101653099E-3   9.504091143608093E-1  -1.603586599230766E-3   9.686951041221619E-1  -1.328619569540024E-2   5.663016811013222E-3   1.169052906334400E-2  
 1.840121756776344E8     5.642768461257219E-3   2.091058995574713E-3   9.432836174964905E-1  -9.997521340847015E-2   9.619448781013489E-1  -1.137890368700028E-1   8.397599682211876E-3   1.092705316841602E-2  
 1.850123206261777E8     7.703536655753851E-3   4.060475155711174E-3   9.290654659271240E-1  -1.947031766176224E-1   9.445227384567261E-1  -2.110292762517929E-1   1.162706408649683E-2   9.548076428472996E-3  
 1.860124655747210E8     8.412966504693031E-3   3.505778964608908E-3   9.059509634971619E-1  -2.899703085422516E-1   9.158903360366821E-1  -3.058142662048340E-1   1.404121797531843E-2   6.169966422021389E-3  
 1.870126105232642E8     1.085954252630472E-2   3.401413559913635E-3   8.691055774688721E-1  -3.805905282497406E-1   8.804913163185120E-1  -3.996292948722839E-1   1.592629961669445E-2   2.496013883501291E-3  
 1.880127554718075E8     1.271167490631342E-2   2.692764392122626E-3   8.246452212333679E-1  -4.695527255535126E-1   8.345023393630981E-1  -4.894464313983917E-1   1.697511784732342E-2  -1.863690093159676E-3  
 1.890129004203508E8     1.464864145964384E-2   4.257168911863118E-4   7.699557542800903E-1  -5.498256683349609E-1   7.800574302673340E-1  -5.711157321929932E-1   1.539757754653692E-2  -6.154025904834271E-3  
 1.900130453688940E8     1.559277903288603E-2  -2.913485048338771E-3   7.129184007644653E-1  -6.277936697006226E-1   7.164810299873352E-1  -6.512612700462341E-1   1.221411209553480E-2  -1.041184738278389E-2  
 1.910131903174373E8     1.454789377748966E-2  -4.481596872210503E-3   6.447798609733582E-1  -6.959853172302246E-1   6.478307843208313E-1  -7.190540432929993E-1   8.623422123491764E-3  -1.352848671376705E-2  
 1.920133352659806E8     1.380306296050549E-2  -7.417152635753155E-3   5.662320256233215E-1  -7.638720870018005E-1   5.682196021080017E-1  -7.807884812355042E-1   3.862135345116258E-3  -1.383513305336237E-2  
 1.930134802145239E8     1.122228428721428E-2  -9.263535030186176E-3   4.890806078910828E-1  -8.139009475708008E-1   4.881702363491058E-1  -8.327928781509399E-1  -1.412804587744176E-3  -1.237816363573074E-2  
